! VERSION = 6.00
BEGIN_HEADER
 ICCAP_INPUTS
  Vds        V  D GROUND SMU1 0 CON        4.5
  freq       F  LIN        1    2e+009     1.1e+011   101  1.08e+009 
  Vgs        V  G GROUND SMU2 0 CON        -1.6
 ICCAP_OUTPUTS
  S_deemb    S  P1 P2 GROUND NWA B
END_HEADER

BEGIN_DB
 ICCAP_VAR Vds        4.5            
 ICCAP_VAR Vgs        -1.6           

 #freq            R:S_deemb(1,1)  I:S_deemb(1,1)  R:S_deemb(1,2)  I:S_deemb(1,2)  R:S_deemb(2,1)  I:S_deemb(2,1)  R:S_deemb(2,2)  I:S_deemb(2,2) 
  2e+009          0.999085        -0.0422558      -1.02385e-005   0.0154803       -0.00437091     0.0158055       0.997791        -0.0364744     
  3.08e+009       0.99781         -0.066054       0.0007814       0.0250427       -0.00346615     0.02555         0.997211        -0.0572559     
  4.16e+009       0.995865        -0.0893462      0.00176571      0.0337817       -0.00239532     0.0344574       0.996094        -0.0776487     
  5.24e+009       0.993103        -0.113111       0.00366722      0.0437593       -0.000441108    0.0445632       0.993871        -0.0984896     
  6.32e+009       0.98929         -0.135808       0.00601468      0.0523085       0.00196709      0.0532935       0.990753        -0.118179      
  7.4e+009        0.985681        -0.158451       0.00802879      0.0606869       0.00413173      0.0618312       0.98802         -0.138214      
  8.48e+009       0.980865        -0.181257       0.0110286       0.0691925       0.00720875      0.0705207       0.984087        -0.158628      
  9.56e+009       0.975523        -0.203663       0.0141847       0.0776006       0.010419        0.0790303       0.979892        -0.178877      
  1.064e+010      0.969954        -0.226071       0.0174983       0.0859796       0.0138582       0.0876203       0.975626        -0.198458      
  1.172e+010      0.963677        -0.24765        0.0211371       0.0940371       0.0175794       0.0957572       0.97082         -0.217344      
  1.28e+010       0.957029        -0.270201       0.0249409       0.102671        0.0215317       0.104503        0.965966        -0.236674      
  1.388e+010      0.949377        -0.292878       0.0301487       0.111525        0.0268219       0.113504        0.959806        -0.25681       
  1.496e+010      0.940154        -0.314511       0.0359279       0.119338        0.0327063       0.121425        0.952448        -0.276583      
  1.604e+010      0.931554        -0.334855       0.0412173       0.126301        0.0380932       0.12854         0.94563         -0.295519      
  1.712e+010      0.922607        -0.355477       0.0467148       0.133977        0.0437903       0.136255        0.938624        -0.314211      
  1.82e+010       0.912608        -0.37603        0.0530379       0.141302        0.0502158       0.143732        0.931067        -0.332429      
  1.928e+010      0.90114         -0.396725       0.0608738       0.148612        0.0582178       0.151116        0.921944        -0.351004      
  2.036e+010      0.889134        -0.415612       0.0679334       0.154164        0.0654305       0.156751        0.912713        -0.368242      
  2.144e+010      0.878168        -0.435747       0.0753867       0.160979        0.0730078       0.163652        0.903734        -0.386489      
  2.252e+010      0.866399        -0.454683       0.0830413       0.167095        0.0808507       0.169775        0.895043        -0.403907      
  2.36e+010       0.852964        -0.473274       0.0917725       0.172379        0.0897316       0.175155        0.88415         -0.420913      
  2.468e+010      0.839532        -0.489525       0.100596        0.176737        0.0987582       0.179524        0.873163        -0.437319      
  2.576e+010      0.827319        -0.50625        0.108941        0.181267        0.10718         0.184135        0.862295        -0.454303      
  2.684e+010      0.812708        -0.523595       0.118102        0.185085        0.116587        0.18781         0.851051        -0.470735      
  2.792e+010      0.799828        -0.539498       0.127123        0.188142        0.125553        0.190958        0.839564        -0.485768      
  2.9e+010        0.784369        -0.554054       0.136819        0.190714        0.135642        0.193617        0.82754         -0.499499      
  3.008e+010      0.771738        -0.568236       0.145095        0.192751        0.144062        0.19566         0.816471        -0.513119      
  3.116e+010      0.757946        -0.581961       0.155092        0.195349        0.154349        0.198098        0.803708        -0.527784      
  3.224e+010      0.742929        -0.596546       0.164189        0.196241        0.163462        0.199046        0.791845        -0.542866      
  3.332e+010      0.728801        -0.61035        0.172883        0.196646        0.172287        0.19941         0.780153        -0.556789      
  3.44e+010       0.710441        -0.625567       0.182296        0.197678        0.181952        0.200294        0.765509        -0.571198      
  3.548e+010      0.695413        -0.638173       0.19223         0.197865        0.191868        0.20053         0.752595        -0.582221      
  3.656e+010      0.681861        -0.650037       0.200548        0.198144        0.200323        0.200672        0.740579        -0.59529       
  3.764e+010      0.666829        -0.664348       0.209738        0.197422        0.209793        0.200196        0.726669        -0.609677      
  3.872e+010      0.650031        -0.676836       0.217745        0.19679         0.217977        0.199291        0.71174         -0.622978      
  3.98e+010       0.631286        -0.684565       0.225962        0.19491         0.226246        0.197661        0.697156        -0.631046      
  4.088e+010      0.614555        -0.695297       0.234886        0.192736        0.235609        0.195466        0.682739        -0.642167      
  4.196e+010      0.598112        -0.704081       0.243529        0.191156        0.244268        0.193269        0.668068        -0.654633      
  4.304e+010      0.582364        -0.714349       0.252407        0.189364        0.253142        0.19208         0.652831        -0.664163      
  4.412e+010      0.563196        -0.724766       0.262922        0.187407        0.263719        0.189379        0.636361        -0.674317      
  4.52e+010       0.54723         -0.729478       0.270064        0.182807        0.270908        0.184947        0.623579        -0.678949      
  4.628e+010      0.529338        -0.734604       0.277967        0.178394        0.279048        0.18048         0.608369        -0.685127      
  4.736e+010      0.514897        -0.741753       0.286021        0.17327         0.28742         0.175174        0.595762        -0.694076      
  4.844e+010      0.497963        -0.747782       0.291462        0.169191        0.292743        0.17121         0.580862        -0.701376      
  4.952e+010      0.475659        -0.753776       0.300238        0.163121        0.301852        0.164698        0.562837        -0.709029      
  5.06e+010       0.464915        -0.753979       0.305999        0.160492        0.307417        0.162045        0.555125        -0.714808      
  5.168e+010      0.448241        -0.750087       0.304763        0.153363        0.305649        0.154889        0.547634        -0.708444      
  5.276e+010      0.452881        -0.775976       0.319092        0.158688        0.320244        0.159971        0.533141        -0.745418      
  5.384e+010      0.429556        -0.779137       0.324849        0.150455        0.325822        0.151762        0.514954        -0.743058      
  5.492e+010      0.408197        -0.783193       0.330237        0.142838        0.332032        0.143808        0.49529         -0.747578      
  5.6e+010        0.393423        -0.791419       0.337738        0.14093         0.338604        0.143031        0.485301        -0.758108      
  5.708e+010      0.375181        -0.793329       0.343983        0.134881        0.345747        0.135805        0.466288        -0.759884      
  5.816e+010      0.356551        -0.794609       0.351755        0.126408        0.352814        0.128404        0.450168        -0.764735      
  5.924e+010      0.343416        -0.797082       0.352714        0.121381        0.354079        0.122495        0.438756        -0.765452      
  6.032e+010      0.325121        -0.795641       0.359611        0.113349        0.36109         0.113887        0.422156        -0.768075      
  6.14e+010       0.310813        -0.800756       0.366316        0.107834        0.367948        0.10921         0.411081        -0.777732      
  6.248e+010      0.299519        -0.797239       0.369224        0.0980716       0.370629        0.0986276       0.399751        -0.773897      
  6.356e+010      0.28182         -0.796763       0.373478        0.0901716       0.374869        0.0901755       0.380713        -0.785001      
  6.464e+010      0.278637        -0.79634        0.369781        0.0878164       0.371748        0.0869537       0.373525        -0.787304      
  6.572e+010      0.268235        -0.792954       0.368715        0.081451        0.370846        0.0812498       0.353704        -0.792604      
  6.68e+010       0.262446        -0.807083       0.375774        0.0819161       0.377125        0.0813869       0.345015        -0.799181      
  6.788e+010      0.249551        -0.815838       0.381707        0.0760374       0.3834          0.0787909       0.327428        -0.802937      
  6.896e+010      0.212249        -0.828306       0.393181        0.07031         0.394333        0.0736904       0.318801        -0.795045      
  7.004e+010      0.199494        -0.820624       0.397232        0.0609191       0.398345        0.0640134       0.290351        -0.807112      
  7.112e+010      0.181793        -0.821643       0.401639        0.0514887       0.402008        0.0548618       0.273106        -0.804427      
  7.22e+010       0.173341        -0.821333       0.406375        0.0434584       0.407345        0.0474231       0.262534        -0.815141      
  7.328e+010      0.15281         -0.815941       0.408232        0.034894        0.409019        0.0386617       0.255765        -0.808575      
  7.436e+010      0.138304        -0.81329        0.412308        0.0257746       0.412782        0.0301702       0.240496        -0.806772      
  7.544e+010      0.12123         -0.806842       0.415628        0.0153925       0.416774        0.0196347       0.222798        -0.80027       
  7.652e+010      0.109513        -0.811134       0.417346        0.0047909       0.418778        0.00867168      0.20164         -0.799881      
  7.76e+010       0.103848        -0.81319        0.416339        -0.00431085     0.4175          -0.000244019    0.184221        -0.803349      
  7.868e+010      0.0861545       -0.806792       0.418265        -0.013469       0.419543        -0.00934644     0.183003        -0.812447      
  7.976e+010      0.0717958       -0.803266       0.417339        -0.0247244      0.418431        -0.0202444      0.175259        -0.80396       
  8.084e+010      0.0624639       -0.793939       0.409872        -0.03495        0.411526        -0.0301573      0.164666        -0.797621      
  8.192e+010      0.0558515       -0.792292       0.406698        -0.0340828      0.408434        -0.0294814      0.161303        -0.80086       
  8.3e+010        0.0521165       -0.802466       0.405725        -0.0418956      0.407292        -0.0376869      0.142838        -0.79722       
  8.408e+010      0.0409952       -0.803094       0.404227        -0.0481089      0.406107        -0.043179       0.126008        -0.799641      
  8.516e+010      0.0234997       -0.796272       0.404348        -0.0564179      0.406098        -0.0510305      0.122368        -0.810571      
  8.624e+010      0.0173066       -0.795153       0.398783        -0.0578606      0.400217        -0.053006       0.115675        -0.80232       
  8.732e+010      0.00482095      -0.794912       0.400061        -0.0582573      0.400774        -0.0548558      0.104629        -0.810987      
  8.84e+010       -0.00533824     -0.801829       0.402324        -0.0601799      0.403094        -0.0578351      0.0922002       -0.805827      
  8.948e+010      -0.0283897      -0.814192       0.411992        -0.0680172      0.413369        -0.064658       0.068066        -0.803161      
  9.056e+010      -0.0385997      -0.797492       0.409598        -0.0848814      0.411154        -0.0819692      0.0519331       -0.797487      
  9.164e+010      -0.0597877      -0.78652        0.406528        -0.094566       0.407379        -0.0915009      0.0458688       -0.805625      
  9.272e+010      -0.0588874      -0.784871       0.3972          -0.100946       0.398208        -0.097569       0.0409617       -0.793908      
  9.38e+010       -0.0821522      -0.777416       0.395407        -0.107703       0.396868        -0.104127       0.0327077       -0.809149      
  9.488e+010      -0.0867053      -0.787773       0.388001        -0.109931       0.389372        -0.106331       0.0406002       -0.80266       
  9.596e+010      -0.0922494      -0.777206       0.38553         -0.112364       0.387005        -0.108942       0.0159422       -0.804761      
  9.704e+010      -0.101103       -0.764532       0.384707        -0.117378       0.385102        -0.116031       -0.00720471     -0.813924      
  9.812e+010      -0.10894        -0.780523       0.382518        -0.118221       0.381922        -0.11811        -0.015936       -0.813316      
  9.92e+010       -0.132048       -0.767566       0.37857         -0.11623        0.376826        -0.119943       -0.0208656      -0.800515      
  1.0028e+011     -0.14575        -0.766135       0.384392        -0.117544       0.381504        -0.126237       -0.0249878      -0.81729       
  1.0136e+011     -0.148777       -0.763157       0.380452        -0.120104       0.377398        -0.131461       -0.0411491      -0.813828      
  1.0244e+011     -0.151792       -0.761178       0.379131        -0.125727       0.375338        -0.138565       -0.0581073      -0.80318       
  1.0352e+011     -0.165994       -0.760046       0.371533        -0.124664       0.368118        -0.13644        -0.0869483      -0.810043      
  1.046e+011      -0.170107       -0.759611       0.37636         -0.121791       0.373439        -0.132269       -0.0792829      -0.807925      
  1.0568e+011     -0.190783       -0.751168       0.383744        -0.129324       0.381931        -0.135707       -0.107748       -0.804518      
  1.0676e+011     -0.196841       -0.759547       0.384979        -0.142667       0.384323        -0.145583       -0.11544        -0.8149        
  1.0784e+011     -0.208014       -0.758114       0.382437        -0.15059        0.382472        -0.151615       -0.136946       -0.786941      
  1.0892e+011     -0.218014       -0.761444       0.37704         -0.159289       0.378061        -0.157697       -0.150409       -0.780512      
  1.1e+011        -0.244872       -0.762818       0.370929        -0.162898       0.372579        -0.160155       -0.149372       -0.78084       
END_DB

