! VERSION = 6.00
BEGIN_HEADER
 ICCAP_INPUTS
  Vds        V  D GROUND SMU1 0 CON        4.5
  freq       F  LIN        1    2e+009     1.1e+011   101  1.08e+009 
  Vgs        V  G GROUND SMU2 0 CON        -2
 ICCAP_OUTPUTS
  S_deemb    S  P1 P2 GROUND NWA B
END_HEADER

BEGIN_DB
 ICCAP_VAR Vds        4.5            
 ICCAP_VAR Vgs        -2             

 #freq            R:S_deemb(1,1)  I:S_deemb(1,1)  R:S_deemb(1,2)  I:S_deemb(1,2)  R:S_deemb(2,1)  I:S_deemb(2,1)  R:S_deemb(2,2)  I:S_deemb(2,2) 
  2e+009          0.998984        -0.0407026      8.39438e-005    0.0154469       -4.08276e-005   0.0154519       0.999141        -0.0363867     
  3.08e+009       0.99785         -0.0637006      0.00085887      0.0250229       0.000759459     0.0250088       0.998572        -0.057095      
  4.16e+009       0.996035        -0.0861958      0.00181005      0.0337558       0.00168785      0.0337406       0.997537        -0.0773929     
  5.24e+009       0.993483        -0.109195       0.00367503      0.0437004       0.00356603      0.0436919       0.995284        -0.0981901     
  6.32e+009       0.989838        -0.131067       0.00600528      0.0522659       0.00589749      0.0522486       0.992179        -0.117852      
  7.4e+009        0.986516        -0.152956       0.00795321      0.0606662       0.00783548      0.0606494       0.989518        -0.137794      
  8.48e+009       0.982044        -0.174996       0.0109169       0.0691966       0.0107976       0.0691971       0.985649        -0.158144      
  9.56e+009       0.977078        -0.196697       0.0139979       0.0776086       0.013894        0.0775791       0.981444        -0.17833       
  1.064e+010      0.971844        -0.218321       0.0172628       0.0860483       0.0171523       0.0860084       0.977177        -0.197895      
  1.172e+010      0.965964        -0.239227       0.0208216       0.094109        0.0207297       0.0940354       0.972415        -0.216678      
  1.28e+010       0.959733        -0.261171       0.0245545       0.102749        0.0244984       0.102723        0.967612        -0.235985      
  1.388e+010      0.9526          -0.283116       0.029679        0.111656        0.0296114       0.111609        0.961531        -0.256153      
  1.496e+010      0.943883        -0.304159       0.035367        0.119539        0.0352919       0.119487        0.954216        -0.27584       
  1.604e+010      0.935751        -0.323935       0.0405494       0.126553        0.04052         0.126492        0.947391        -0.294695      
  1.712e+010      0.927437        -0.343953       0.0459802       0.134291        0.0458866       0.134219        0.940494        -0.313363      
  1.82e+010       0.918042        -0.363924       0.0522048       0.141711        0.0521351       0.141616        0.932938        -0.331544      
  1.928e+010      0.907192        -0.38419        0.0599182       0.149159        0.0598903       0.149049        0.9238          -0.350074      
  2.036e+010      0.895818        -0.402667       0.0669462       0.15479         0.0668861       0.154701        0.914647        -0.367287      
  2.144e+010      0.885584        -0.422247       0.0742739       0.161756        0.0742239       0.161615        0.905691        -0.385475      
  2.252e+010      0.874441        -0.440776       0.0818092       0.168004        0.0817863       0.167805        0.897072        -0.402877      
  2.36e+010       0.861782        -0.459188       0.0905214       0.173414        0.0904822       0.173277        0.886233        -0.419908      
  2.468e+010      0.848982        -0.475027       0.0992049       0.177989        0.0992855       0.177752        0.875258        -0.436321      
  2.576e+010      0.837403        -0.491508       0.10747         0.182656        0.107493        0.182466        0.864462        -0.453277      
  2.684e+010      0.823518        -0.50841        0.116627        0.186555        0.116602        0.186394        0.853111        -0.469672      
  2.792e+010      0.81126         -0.524084       0.125541        0.189957        0.125519        0.189552        0.841788        -0.484753      
  2.9e+010        0.796746        -0.538431       0.135187        0.192565        0.135202        0.19236         0.829758        -0.498508      
  3.008e+010      0.784649        -0.552561       0.143522        0.194951        0.143554        0.194637        0.818694        -0.51206       
  3.116e+010      0.771437        -0.566235       0.153415        0.197644        0.153647        0.19742         0.805943        -0.526934      
  3.224e+010      0.757399        -0.580492       0.162501        0.198862        0.162593        0.198405        0.794179        -0.541766      
  3.332e+010      0.743944        -0.594358       0.171155        0.199335        0.17134         0.199056        0.782242        -0.555741      
  3.44e+010       0.726587        -0.609523       0.180671        0.200571        0.180957        0.200208        0.767691        -0.570239      
  3.548e+010      0.712268        -0.621932       0.190579        0.200974        0.190569        0.20063         0.754879        -0.581495      
  3.656e+010      0.69916         -0.634055       0.198825        0.201453        0.198913        0.200905        0.742634        -0.594227      
  3.764e+010      0.68519         -0.648213       0.208016        0.201308        0.208361        0.200677        0.728887        -0.608429      
  3.872e+010      0.668978        -0.660752       0.216223        0.200817        0.216685        0.200176        0.714078        -0.62155       
  3.98e+010       0.651125        -0.668852       0.224589        0.199192        0.224551        0.198863        0.699405        -0.630202      
  4.088e+010      0.635014        -0.679843       0.233608        0.196971        0.234072        0.196319        0.684987        -0.641479      
  4.196e+010      0.619461        -0.688502       0.242543        0.195742        0.242667        0.194768        0.670531        -0.653267      
  4.304e+010      0.603891        -0.699159       0.251522        0.194387        0.251384        0.193539        0.655391        -0.662606      
  4.412e+010      0.586099        -0.709064       0.262019        0.192119        0.262252        0.191838        0.639148        -0.672929      
  4.52e+010       0.570275        -0.714324       0.26918         0.188126        0.269285        0.187567        0.625943        -0.677801      
  4.628e+010      0.552863        -0.719965       0.277279        0.183527        0.277269        0.183092        0.610569        -0.683946      
  4.736e+010      0.538998        -0.727603       0.285561        0.178964        0.28602         0.178329        0.598701        -0.692525      
  4.844e+010      0.522645        -0.733645       0.291184        0.175079        0.291106        0.174296        0.58338         -0.700002      
  4.952e+010      0.500865        -0.740018       0.300434        0.169171        0.300473        0.168733        0.565595        -0.707354      
  5.06e+010       0.490892        -0.740553       0.306096        0.166572        0.306297        0.16584         0.557611        -0.713129      
  5.168e+010      0.474627        -0.737043       0.304925        0.159195        0.304972        0.158759        0.550069        -0.707178      
  5.276e+010      0.479248        -0.762322       0.319237        0.165317        0.319342        0.164398        0.53586         -0.74355       
  5.384e+010      0.457037        -0.765818       0.325035        0.156611        0.324971        0.157023        0.517111        -0.741563      
  5.492e+010      0.43605         -0.770186       0.331259        0.1496          0.33102         0.148303        0.498583        -0.745772      
  5.6e+010        0.422936        -0.779935       0.337949        0.148244        0.337958        0.146528        0.487711        -0.755941      
  5.708e+010      0.404652        -0.781619       0.344858        0.142165        0.344983        0.141116        0.46916         -0.758297      
  5.816e+010      0.386399        -0.782853       0.352773        0.134122        0.352185        0.133631        0.452493        -0.761822      
  5.924e+010      0.374804        -0.785043       0.354404        0.128847        0.35441         0.12848         0.44243         -0.764216      
  6.032e+010      0.355388        -0.784803       0.361423        0.120303        0.361256        0.120025        0.424769        -0.767225      
  6.14e+010       0.342175        -0.790892       0.368252        0.115999        0.368293        0.115492        0.41405         -0.775519      
  6.248e+010      0.33053         -0.787562       0.370998        0.10644         0.370559        0.104972        0.40273         -0.772068      
  6.356e+010      0.31275         -0.788227       0.375945        0.0983615       0.37596         0.097643        0.384054        -0.78229       
  6.464e+010      0.310867        -0.786692       0.373288        0.0954616       0.372041        0.0945361       0.376863        -0.784284      
  6.572e+010      0.300131        -0.784124       0.371852        0.0889007       0.371859        0.0872841       0.357103        -0.791065      
  6.68e+010       0.295939        -0.798277       0.37941         0.0907336       0.379517        0.0889307       0.348737        -0.797201      
  6.788e+010      0.284131        -0.807998       0.385406        0.0844533       0.385044        0.0853148       0.330714        -0.800459      
  6.896e+010      0.247698        -0.821031       0.397294        0.0787081       0.396088        0.0805167       0.322492        -0.792396      
  7.004e+010      0.234495        -0.814023       0.402607        0.0687314       0.400056        0.071741        0.293879        -0.805188      
  7.112e+010      0.217724        -0.81496        0.406437        0.0599968       0.404835        0.0625929       0.276993        -0.801738      
  7.22e+010       0.210394        -0.815421       0.41192         0.0520126       0.410156        0.0548858       0.266247        -0.812408      
  7.328e+010      0.188919        -0.810682       0.4138          0.0436396       0.412468        0.0467861       0.259742        -0.805815      
  7.436e+010      0.175693        -0.808166       0.418063        0.0339278       0.416609        0.0382788       0.24432         -0.804021      
  7.544e+010      0.157518        -0.802565       0.422005        0.0237743       0.420758        0.0279342       0.227162        -0.797496      
  7.652e+010      0.146535        -0.807488       0.423781        0.0133275       0.42297         0.0168401       0.206289        -0.796888      
  7.76e+010       0.141896        -0.810135       0.423192        0.00404638      0.422212        0.00783192      0.189101        -0.80029       
  7.868e+010      0.125515        -0.803215       0.425498        -0.00497301     0.424812        -0.00136128     0.187784        -0.809321      
  7.976e+010      0.111885        -0.801246       0.424826        -0.0166933      0.424429        -0.0124897      0.179664        -0.800894      
  8.084e+010      0.10204         -0.790847       0.41781         -0.0271861      0.417523        -0.0224852      0.169437        -0.79452       
  8.192e+010      0.0928811       -0.791553       0.414892        -0.0261729      0.414922        -0.0218517      0.166139        -0.797756      
  8.3e+010        0.0912635       -0.80085        0.413766        -0.0341235      0.413806        -0.0299998      0.148118        -0.79386       
  8.408e+010      0.0819151       -0.803072       0.412633        -0.0407484      0.41303         -0.035504       0.131437        -0.79656       
  8.516e+010      0.0660386       -0.795355       0.412911        -0.0485355      0.413585        -0.0435463      0.128031        -0.807035      
  8.624e+010      0.0595024       -0.794381       0.407616        -0.0503288      0.407633        -0.0455263      0.121565        -0.799339      
  8.732e+010      0.0460402       -0.794963       0.409114        -0.0508106      0.408369        -0.047158       0.110333        -0.807877      
  8.84e+010       0.0374285       -0.802719       0.411449        -0.0522104      0.411081        -0.0499719      0.098298        -0.80285       
  8.948e+010      0.014679        -0.8164         0.42187         -0.0600351      0.421529        -0.0569201      0.0742481       -0.79982       
  9.056e+010      0.00503154      -0.801078       0.419768        -0.0769935      0.420028        -0.0738555      0.0590725       -0.794128      
  9.164e+010      -0.0171024      -0.789045       0.416672        -0.0865159      0.416561        -0.0838867      0.0526718       -0.802196      
  9.272e+010      -0.0147942      -0.788557       0.40766         -0.0932486      0.40784         -0.0903774      0.0479856       -0.790743      
  9.38e+010       -0.0380772      -0.781351       0.40636         -0.100379       0.406323        -0.0968337      0.0396791       -0.806         
  9.488e+010      -0.0420534      -0.792346       0.398954        -0.103118       0.398993        -0.0992688      0.0474609       -0.799691      
  9.596e+010      -0.0478355      -0.782062       0.396734        -0.105363       0.396665        -0.101915       0.0230306       -0.801919      
  9.704e+010      -0.0565686      -0.769688       0.396058        -0.11058        0.395149        -0.108856       0.000143873     -0.811002      
  9.812e+010      -0.0636877      -0.786435       0.393842        -0.111107       0.392169        -0.111605       -0.00809225     -0.810486      
  9.92e+010       -0.0864943      -0.775369       0.390347        -0.109294       0.38694         -0.11366        -0.0128947      -0.798266      
  1.0028e+011     -0.0998888      -0.774308       0.396288        -0.110197       0.392071        -0.120077       -0.0173498      -0.814598      
  1.0136e+011     -0.102651       -0.771373       0.392569        -0.112606       0.387878        -0.125576       -0.0335273      -0.811493      
  1.0244e+011     -0.104974       -0.769988       0.391475        -0.118317       0.386239        -0.133144       -0.0501142      -0.800958      
  1.0352e+011     -0.118346       -0.770175       0.383862        -0.117335       0.379055        -0.130869       -0.0783424      -0.808331      
  1.046e+011      -0.12204        -0.770379       0.388494        -0.114421       0.384374        -0.126312       -0.0716296      -0.80589       
  1.0568e+011     -0.142717       -0.76298        0.396242        -0.122007       0.393294        -0.129064       -0.0992546      -0.802386      
  1.0676e+011     -0.148525       -0.771694       0.39817         -0.135871       0.396468        -0.138971       -0.107221       -0.812496      
  1.0784e+011     -0.159203       -0.771316       0.395984        -0.144448       0.395246        -0.144805       -0.128121       -0.785037      
  1.0892e+011     -0.168695       -0.775921       0.390806        -0.153717       0.390962        -0.151096       -0.14158        -0.778797      
  1.1e+011        -0.195575       -0.77854        0.384629        -0.157697       0.385383        -0.154167       -0.140629       -0.779374      
END_DB

