! VERSION = 6.00
BEGIN_HEADER
 ICCAP_INPUTS
  Vds        V  D GROUND SMU1 0 CON        4.5
  freq       F  LIN        1    2e+009     1.1e+011   101  1.08e+009 
  Vgs        V  G GROUND SMU2 0 CON        -0.9
 ICCAP_OUTPUTS
  S_deemb    S  P1 P2 GROUND NWA B
END_HEADER

BEGIN_DB
 ICCAP_VAR Vds        4.5            
 ICCAP_VAR Vgs        -0.9           

 #freq            R:S_deemb(1,1)  I:S_deemb(1,1)  R:S_deemb(1,2)  I:S_deemb(1,2)  R:S_deemb(2,1)  I:S_deemb(2,1)  R:S_deemb(2,2)  I:S_deemb(2,2) 
  2e+009          0.997856        -0.0776774      0.000811193     0.0123333       -1.49329        0.130284        0.888167        -0.039678      
  3.08e+009       0.992733        -0.121283       0.00170172      0.020131        -1.48545        0.198557        0.886435        -0.0630184     
  4.16e+009       0.9856          -0.163557       0.00280022      0.0270976       -1.47219        0.266845        0.884329        -0.0851984     
  5.24e+009       0.975462        -0.206567       0.00486737      0.0351206       -1.4567         0.334811        0.880138        -0.108385      
  6.32e+009       0.963038        -0.246553       0.00736145      0.0417801       -1.4349         0.40038         0.875021        -0.129478      
  7.4e+009        0.950015        -0.286723       0.00953794      0.0482475       -1.41691        0.463436        0.870579        -0.150674      
  8.48e+009       0.933719        -0.325468       0.0127272       0.0547012       -1.38784        0.527673        0.8641          -0.172123      
  9.56e+009       0.916017        -0.363139       0.016065        0.0609089       -1.35706        0.588666        0.857248        -0.19326       
  1.064e+010      0.897159        -0.400044       0.019537        0.067097        -1.32475        0.643754        0.850239        -0.213739      
  1.172e+010      0.876349        -0.434903       0.0233441       0.0728171       -1.28977        0.70026         0.84286         -0.23327       
  1.28e+010       0.853616        -0.470508       0.0273614       0.078888        -1.25505        0.755748        0.834504        -0.253248      
  1.388e+010      0.828292        -0.503337       0.0325905       0.0849532       -1.20943        0.809779        0.82449         -0.273452      
  1.496e+010      0.801547        -0.533887       0.0381339       0.0898897       -1.16407        0.855777        0.812687        -0.292357      
  1.604e+010      0.775636        -0.562059       0.043244        0.0940684       -1.11921        0.899361        0.802553        -0.310474      
  1.712e+010      0.747203        -0.590525       0.0484687       0.0987158       -1.07454        0.944901        0.791805        -0.328029      
  1.82e+010       0.717969        -0.615762       0.0543767       0.102712        -1.02455        0.983347        0.779724        -0.344854      
  1.928e+010      0.686198        -0.639192       0.0613319       0.10664         -0.970952       1.01867         0.766219        -0.361003      
  2.036e+010      0.654613        -0.659948       0.0674943       0.108909        -0.918084       1.05133         0.753293        -0.375342      
  2.144e+010      0.624165        -0.680195       0.0740857       0.111965        -0.863401       1.07823         0.739921        -0.391842      
  2.252e+010      0.591461        -0.699081       0.0800756       0.114258        -0.813731       1.10648         0.726701        -0.40499       
  2.36e+010       0.558796        -0.714417       0.0869668       0.115927        -0.759199       1.13006         0.711824        -0.417803      
  2.468e+010      0.525388        -0.727501       0.0937375       0.116708        -0.70757        1.1493          0.697826        -0.429666      
  2.576e+010      0.49625         -0.738097       0.10006         0.117636        -0.652333       1.16116         0.683851        -0.44264       
  2.684e+010      0.464108        -0.749298       0.106538        0.118055        -0.60173        1.17323         0.670101        -0.453731      
  2.792e+010      0.433988        -0.757354       0.112729        0.117584        -0.549898       1.18175         0.655836        -0.463738      
  2.9e+010        0.400981        -0.762506       0.118816        0.11653         -0.498053       1.19068         0.641055        -0.47148       
  3.008e+010      0.374248        -0.767298       0.123697        0.11578         -0.451759       1.19342         0.62847         -0.478865      
  3.116e+010      0.343256        -0.771504       0.130313        0.114786        -0.40165        1.20028         0.61374         -0.488464      
  3.224e+010      0.314808        -0.774379       0.135114        0.112966        -0.355152       1.19941         0.600878        -0.4973        
  3.332e+010      0.288397        -0.775139       0.139204        0.111129        -0.308587       1.19604         0.588921        -0.504368      
  3.44e+010       0.25855         -0.776294       0.143711        0.110057        -0.261315       1.19311         0.573843        -0.510807      
  3.548e+010      0.232626        -0.776639       0.149657        0.108071        -0.218726       1.18866         0.561331        -0.517241      
  3.656e+010      0.208922        -0.776679       0.153459        0.10673         -0.178697       1.18271         0.550704        -0.524048      
  3.764e+010      0.183172        -0.776537       0.157554        0.104417        -0.139006       1.17815         0.536874        -0.532226      
  3.872e+010      0.160225        -0.775885       0.161259        0.103186        -0.099475       1.16776         0.524252        -0.539546      
  3.98e+010       0.135893        -0.77085        0.165079        0.101241        -0.0621097      1.15671         0.512442        -0.542088      
  4.088e+010      0.111581        -0.766028       0.168653        0.0980735       -0.0219772      1.14565         0.499726        -0.546665      
  4.196e+010      0.0902914       -0.761091       0.172903        0.0960478       0.0130549       1.13297         0.487742        -0.554721      
  4.304e+010      0.0677061       -0.759808       0.176606        0.0937399       0.0469711       1.12095         0.47503         -0.558782      
  4.412e+010      0.0411075       -0.753321       0.181779        0.0909224       0.0866156       1.11043         0.460071        -0.563482      
  4.52e+010       0.0238175       -0.745492       0.184192        0.0873805       0.11507         1.09152         0.451133        -0.563324      
  4.628e+010      0.00450032      -0.736408       0.187165        0.0834646       0.145134        1.07285         0.439288        -0.564635      
  4.736e+010      -0.0140997      -0.73084        0.189625        0.0787973       0.171665        1.05712         0.428781        -0.569286      
  4.844e+010      -0.0312284      -0.723083       0.190975        0.0769277       0.198274        1.04031         0.418609        -0.571459      
  4.952e+010      -0.0561107      -0.711909       0.193526        0.0725241       0.229599        1.02148         0.403962        -0.57398       
  5.06e+010       -0.0684721      -0.701917       0.196698        0.0708103       0.251039        1.00937         0.399828        -0.578889      
  5.168e+010      -0.0751103      -0.679458       0.193129        0.0673628       0.268033        0.978792        0.398119        -0.572286      
  5.276e+010      -0.0818923      -0.713333       0.200105        0.0680776       0.288709        0.989742        0.380546        -0.598108      
  5.384e+010      -0.106247       -0.699032       0.201552        0.0636466       0.3156          0.966377        0.371256        -0.592864      
  5.492e+010      -0.127555       -0.685759       0.202195        0.0596985       0.34177         0.946986        0.355715        -0.593837      
  5.6e+010        -0.144058       -0.683292       0.204524        0.058637        0.364266        0.935024        0.348787        -0.601794      
  5.708e+010      -0.160995       -0.670173       0.207387        0.0555464       0.388356        0.9141          0.335472        -0.600931      
  5.816e+010      -0.17686        -0.657339       0.209463        0.0507143       0.40918         0.890444        0.322474        -0.603353      
  5.924e+010      -0.185603       -0.648283       0.208959        0.0483933       0.422977        0.872083        0.318261        -0.602511      
  6.032e+010      -0.200443       -0.635459       0.211049        0.0438141       0.442532        0.849023        0.304676        -0.60119       
  6.14e+010       -0.214261       -0.629002       0.212085        0.040424        0.462267        0.83475         0.29662         -0.608068      
  6.248e+010      -0.22002        -0.614958       0.211896        0.0349997       0.471141        0.809339        0.289585        -0.603455      
  6.356e+010      -0.232296       -0.604937       0.212097        0.0312447       0.488019        0.79144         0.273404        -0.610684      
  6.464e+010      -0.230983       -0.600716       0.209199        0.030924        0.491535        0.778654        0.275577        -0.611674      
  6.572e+010      -0.238438       -0.590661       0.205745        0.0297126       0.502743        0.761158        0.262447        -0.613501      
  6.68e+010       -0.249082       -0.596843       0.208421        0.0302713       0.519705        0.751344        0.255617        -0.622677      
  6.788e+010      -0.249091       -0.604008       0.210692        0.0279653       0.526101        0.723139        0.241818        -0.624771      
  6.896e+010      -0.284015       -0.595757       0.215689        0.0262439       0.54975         0.710061        0.234577        -0.61459       
  7.004e+010      -0.289468       -0.58269        0.218432        0.0225093       0.563216        0.680418        0.214302        -0.626461      
  7.112e+010      -0.303675       -0.573783       0.219583        0.0172477       0.573663        0.659585        0.201469        -0.623776      
  7.22e+010       -0.306141       -0.559918       0.221494        0.0132553       0.588853        0.639445        0.195072        -0.633756      
  7.328e+010      -0.319229       -0.545431       0.221001        0.0104929       0.59544         0.616517        0.192867        -0.626307      
  7.436e+010      -0.325651       -0.536924       0.222206        0.00607542      0.601281        0.595394        0.181521        -0.623603      
  7.544e+010      -0.336367       -0.522614       0.223683        0.00128928      0.609349        0.570586        0.16873         -0.617338      
  7.652e+010      -0.34443        -0.524029       0.223814        -0.00406413     0.609118        0.549172        0.152479        -0.617611      
  7.76e+010       -0.348992       -0.521568       0.221182        -0.0082811      0.605934        0.534746        0.140252        -0.620582      
  7.868e+010      -0.36194        -0.508561       0.220864        -0.0126047      0.608672        0.522134        0.141617        -0.628314      
  7.976e+010      -0.368911       -0.496873       0.218462        -0.0179058      0.611904        0.505947        0.137791        -0.618938      
  8.084e+010      -0.370907       -0.480523       0.213037        -0.0211573      0.61072         0.489891        0.133681        -0.613983      
  8.192e+010      -0.37703        -0.479014       0.210646        -0.0183913      0.615182        0.490968        0.133302        -0.618467      
  8.3e+010        -0.383103       -0.472108       0.209467        -0.0209422      0.625546        0.473913        0.120635        -0.616636      
  8.408e+010      -0.386423       -0.467527       0.208607        -0.0231399      0.628527        0.459831        0.108749        -0.620386      
  8.516e+010      -0.399741       -0.455183       0.206772        -0.0256539      0.631046        0.450942        0.108509        -0.629345      
  8.624e+010      -0.402943       -0.444382       0.20356         -0.0245293      0.638584        0.439523        0.1055          -0.623985      
  8.732e+010      -0.411615       -0.440898       0.204129        -0.022814       0.64449         0.425555        0.0985647       -0.634159      
  8.84e+010       -0.422433       -0.435086       0.205484        -0.0223567      0.656295        0.416131        0.0886581       -0.631808      
  8.948e+010      -0.435452       -0.425073       0.21165         -0.0245154      0.676448        0.389079        0.0669947       -0.630792      
  9.056e+010      -0.434296       -0.403908       0.2098          -0.0330597      0.671584        0.362508        0.0557883       -0.624668      
  9.164e+010      -0.446297       -0.38837        0.208696        -0.0363859      0.671852        0.347207        0.0536347       -0.632777      
  9.272e+010      -0.439473       -0.383091       0.202359        -0.0392848      0.667304        0.336828        0.0533285       -0.623852      
  9.38e+010       -0.455414       -0.373648       0.202371        -0.0415363      0.667081        0.322467        0.0483347       -0.640163      
  9.488e+010      -0.454093       -0.372431       0.196718        -0.0408784      0.671073        0.318214        0.0596222       -0.635082      
  9.596e+010      -0.456878       -0.357254       0.19573         -0.0400482      0.674926        0.305562        0.038892        -0.639387      
  9.704e+010      -0.46036        -0.34208        0.195926        -0.0409548      0.67856         0.287659        0.0210797       -0.650358      
  9.812e+010      -0.470608       -0.347658       0.195277        -0.039275       0.685599        0.277226        0.0172064       -0.654105      
  9.92e+010       -0.47885        -0.324688       0.194236        -0.0369262      0.686609        0.260754        0.012392        -0.646201      
  1.0028e+011     -0.48581        -0.322281       0.197789        -0.0372984      0.693592        0.241576        0.00928272      -0.662995      
  1.0136e+011     -0.488116       -0.31069        0.194245        -0.0372943      0.699192        0.229933        -0.00269365     -0.661363      
  1.0244e+011     -0.486444       -0.302682       0.194222        -0.0385441      0.701734        0.212103        -0.0156385      -0.653805      
  1.0352e+011     -0.497032       -0.292677       0.190729        -0.0350941      0.704021        0.202742        -0.0394046      -0.666612      
  1.046e+011      -0.498182       -0.283672       0.195022        -0.034068       0.708437        0.194916        -0.0344196      -0.668147      
  1.0568e+011     -0.506357       -0.26292        0.199087        -0.0363656      0.717648        0.175563        -0.0615435      -0.66638       
  1.0676e+011     -0.508034       -0.26677        0.199294        -0.0427281      0.714538        0.159801        -0.0667565      -0.676894      
  1.0784e+011     -0.512296       -0.255101       0.198785        -0.0436523      0.710334        0.14622         -0.0859527      -0.652474      
  1.0892e+011     -0.513204       -0.24347        0.196995        -0.0456551      0.709143        0.134274        -0.0969173      -0.64903       
  1.1e+011        -0.525407       -0.23534        0.197001        -0.0458963      0.708232        0.124794        -0.0942127      -0.653101      
END_DB

