! VERSION = 6.00
BEGIN_HEADER
 ICCAP_INPUTS
  Vds        V  D GROUND SMU1 0 CON        4.5
  freq       F  LIN        1    2e+009     1.1e+011   101  1.08e+009 
  Vgs        V  G GROUND SMU2 0 CON        -0.3
 ICCAP_OUTPUTS
  S_deemb    S  P1 P2 GROUND NWA B
END_HEADER

BEGIN_DB
 ICCAP_VAR Vds        4.5            
 ICCAP_VAR Vgs        -0.3           

 #freq            R:S_deemb(1,1)  I:S_deemb(1,1)  R:S_deemb(1,2)  I:S_deemb(1,2)  R:S_deemb(2,1)  I:S_deemb(2,1)  R:S_deemb(2,2)  I:S_deemb(2,2) 
  2e+009          0.990671        -0.0990422      0.00336744      0.00895719      -3.14654        0.282497        0.846186        -0.0339401     
  3.08e+009       0.982553        -0.15525        0.00401483      0.0149146       -3.12231        0.429106        0.845428        -0.0602888     
  4.16e+009       0.971417        -0.209193       0.00479174      0.0201226       -3.09436        0.573761        0.843634        -0.0840387     
  5.24e+009       0.955213        -0.26398        0.00651914      0.0263761       -3.05195        0.718896        0.838833        -0.109261      
  6.32e+009       0.936179        -0.31403        0.00855668      0.0312897       -3.00021        0.850917        0.833172        -0.131119      
  7.4e+009        0.915615        -0.363896       0.0102613       0.0360675       -2.9502         0.987653        0.828339        -0.153269      
  8.48e+009       0.890971        -0.411361       0.0128751       0.0408113       -2.88359        1.11574         0.820877        -0.175491      
  9.56e+009       0.863898        -0.457089       0.015571        0.0453237       -2.81569        1.24189         0.813334        -0.197261      
  1.064e+010      0.834491        -0.501231       0.0183431       0.049803        -2.738          1.36173         0.805306        -0.218469      
  1.172e+010      0.803049        -0.541748       0.0214358       0.0538931       -2.65504        1.47378         0.796588        -0.238339      
  1.28e+010       0.768617        -0.582294       0.0246409       0.0582908       -2.5645         1.58468         0.78685         -0.259003      
  1.388e+010      0.731183        -0.618561       0.028954        0.0625851       -2.46103        1.68429         0.774108        -0.279658      
  1.496e+010      0.691789        -0.650814       0.033437        0.0658798       -2.35691        1.77416         0.760481        -0.297946      
  1.604e+010      0.654167        -0.68019        0.0374409       0.0685263       -2.25603        1.85488         0.748957        -0.315152      
  1.712e+010      0.613107        -0.708311       0.0415892       0.0714741       -2.14671        1.9355          0.736336        -0.332774      
  1.82e+010       0.571439        -0.731977       0.0461377       0.0739334       -2.03633        2.00469         0.722515        -0.348561      
  1.928e+010      0.527961        -0.751692       0.0515898       0.0761176       -1.9181         2.05881         0.705775        -0.363363      
  2.036e+010      0.48513         -0.768903       0.0562479       0.0769924       -1.80478        2.11209         0.6918          -0.376042      
  2.144e+010      0.442936        -0.784365       0.0611448       0.0784102       -1.68982        2.15374         0.675464        -0.390754      
  2.252e+010      0.400166        -0.796393       0.0654173       0.0793207       -1.57398        2.18916         0.660958        -0.401993      
  2.36e+010       0.358406        -0.804891       0.0703327       0.0797711       -1.46448        2.2169          0.644818        -0.412153      
  2.468e+010      0.316952        -0.809227       0.0751128       0.0793604       -1.3507         2.23568         0.629065        -0.421567      
  2.576e+010      0.280301        -0.812345       0.0793324       0.079243        -1.24645        2.24639         0.614293        -0.431845      
  2.684e+010      0.241428        -0.815286       0.0835491       0.0787683       -1.14385        2.25308         0.600027        -0.439552      
  2.792e+010      0.20588         -0.813347       0.0875021       0.0776168       -1.04124        2.25253         0.585535        -0.446997      
  2.9e+010        0.168718        -0.807679       0.0913775       0.0758302       -0.938624       2.24567         0.569837        -0.451813      
  3.008e+010      0.139216        -0.804056       0.0936811       0.0747234       -0.853009       2.23547         0.558047        -0.455852      
  3.116e+010      0.106115        -0.798703       0.0980083       0.0729756       -0.758569       2.22583         0.54251         -0.463036      
  3.224e+010      0.0751479       -0.79297        0.10024         0.0710204       -0.675635       2.20908         0.530668        -0.467774      
  3.332e+010      0.0483822       -0.784509       0.102031        0.0694024       -0.596182       2.18829         0.520154        -0.472326      
  3.44e+010       0.017862        -0.777504       0.104161        0.0689443       -0.517083       2.16686         0.506959        -0.477503      
  3.548e+010      -0.00785559     -0.769928       0.107705        0.0665021       -0.444166       2.14437         0.494453        -0.480768      
  3.656e+010      -0.0311995      -0.763226       0.109451        0.0658462       -0.379307       2.12394         0.485334        -0.485139      
  3.764e+010      -0.0543545      -0.755514       0.110901        0.0639183       -0.314284       2.1006          0.47317         -0.490747      
  3.872e+010      -0.0772102      -0.749638       0.112521        0.0633247       -0.254143       2.07903         0.462009        -0.495956      
  3.98e+010       -0.101323       -0.737662       0.114323        0.0620999       -0.192188       2.05021         0.452063        -0.496946      
  4.088e+010      -0.123113       -0.727202       0.11619         0.0601997       -0.130551       2.02041         0.440691        -0.500605      
  4.196e+010      -0.142528       -0.715057       0.118607        0.0585386       -0.0724975      1.99365         0.430525        -0.506381      
  4.304e+010      -0.164601       -0.709293       0.120485        0.0570743       -0.0206953      1.96968         0.419137        -0.508279      
  4.412e+010      -0.189072       -0.696208       0.123195        0.0549882       0.0395655       1.94167         0.406239        -0.511456      
  4.52e+010       -0.204738       -0.683264       0.123929        0.0525097       0.0828962       1.90431         0.398493        -0.510381      
  4.628e+010      -0.221366       -0.669035       0.125304        0.05            0.128389        1.86893         0.38794         -0.510497      
  4.736e+010      -0.238336       -0.656845       0.125823        0.046418        0.170462        1.83742         0.379298        -0.511852      
  4.844e+010      -0.251874       -0.646692       0.125389        0.0457596       0.209192        1.80749         0.371544        -0.513869      
  4.952e+010      -0.272406       -0.629838       0.126555        0.0430377       0.255059        1.77105         0.359984        -0.514982      
  5.06e+010       -0.285635       -0.615378       0.128343        0.0419524       0.286911        1.75127         0.356917        -0.51884       
  5.168e+010      -0.284257       -0.588566       0.12485         0.040597        0.316286        1.69768         0.356522        -0.513075      
  5.276e+010      -0.293874       -0.624108       0.128431        0.0405883       0.34229         1.70894         0.340762        -0.534816      
  5.384e+010      -0.317374       -0.604988       0.128905        0.0382681       0.383714        1.67052         0.332661        -0.530257      
  5.492e+010      -0.333051       -0.587427       0.128167        0.0366939       0.42159         1.63778         0.321803        -0.531187      
  5.6e+010        -0.350585       -0.579476       0.129576        0.0363315       0.456562        1.61579         0.315053        -0.537498      
  5.708e+010      -0.362165       -0.564794       0.129919        0.0349468       0.491795        1.58069         0.303833        -0.536095      
  5.816e+010      -0.375415       -0.545685       0.131501        0.03181         0.521549        1.54078         0.293565        -0.538149      
  5.924e+010      -0.383358       -0.537862       0.130952        0.0312052       0.542396        1.51394         0.289836        -0.537929      
  6.032e+010      -0.392383       -0.520586       0.13075         0.0279046       0.570452        1.47616         0.278562        -0.537112      
  6.14e+010       -0.406777       -0.508578       0.131076        0.0264276       0.600185        1.45169         0.27304         -0.541351      
  6.248e+010      -0.405209       -0.493032       0.12956         0.0218423       0.610826        1.41427         0.267098        -0.536304      
  6.356e+010      -0.414556       -0.477542       0.128225        0.0209957       0.634429        1.38467         0.254813        -0.542568      
  6.464e+010      -0.413592       -0.479788       0.125862        0.0216427       0.642711        1.36527         0.25469         -0.544173      
  6.572e+010      -0.416087       -0.472041       0.122615        0.0222259       0.662436        1.34135         0.246104        -0.548348      
  6.68e+010       -0.429793       -0.472471       0.123751        0.0233212       0.686309        1.32295         0.242321        -0.554328      
  6.788e+010      -0.438392       -0.467194       0.124679        0.023922        0.709299        1.30408         0.23184         -0.557443      
  6.896e+010      -0.469337       -0.454663       0.128072        0.0238472       0.738072        1.27793         0.224739        -0.547478      
  7.004e+010      -0.475145       -0.438178       0.129868        0.0221645       0.759852        1.23865         0.206792        -0.558564      
  7.112e+010      -0.485999       -0.425843       0.130679        0.0198102       0.775909        1.20386         0.196634        -0.556408      
  7.22e+010       -0.486349       -0.409754       0.131601        0.0178697       0.793395        1.17321         0.19159         -0.56589       
  7.328e+010      -0.497193       -0.392179       0.130914        0.0161969       0.804541        1.14391         0.190013        -0.558806      
  7.436e+010      -0.501048       -0.378961       0.131478        0.0140938       0.817064        1.11185         0.180452        -0.555769      
  7.544e+010      -0.508211       -0.361941       0.132496        0.0110261       0.8293          1.07721         0.168277        -0.549256      
  7.652e+010      -0.513104       -0.356175       0.131498        0.00807942      0.83893         1.04742         0.154838        -0.548684      
  7.76e+010       -0.512393       -0.348179       0.128834        0.00667133      0.844738        1.02276         0.146251        -0.551649      
  7.868e+010      -0.51792        -0.331676       0.128717        0.00467934      0.852527        0.996852        0.149592        -0.559001      
  7.976e+010      -0.520295       -0.320877       0.127059        0.00170932      0.853016        0.968597        0.147672        -0.549741      
  8.084e+010      -0.519749       -0.307983       0.122468        0.000248294     0.848266        0.950434        0.147037        -0.54495       
  8.192e+010      -0.523712       -0.308428       0.119617        0.00357824      0.859338        0.948742        0.14909         -0.551077      
  8.3e+010        -0.529705       -0.301659       0.118823        0.00305756      0.869287        0.922677        0.139259        -0.55084       
  8.408e+010      -0.532598       -0.29239        0.117991        0.0027964       0.877861        0.905268        0.130369        -0.556059      
  8.516e+010      -0.538012       -0.27703        0.116523        0.00251488      0.889159        0.884156        0.132267        -0.564754      
  8.624e+010      -0.543082       -0.269104       0.114386        0.00503304      0.896643        0.869978        0.131743        -0.562613      
  8.732e+010      -0.551569       -0.260478       0.114603        0.00751487      0.916388        0.850965        0.126502        -0.575254      
  8.84e+010       -0.560226       -0.254093       0.115745        0.00940927      0.933374        0.830312        0.117119        -0.575169      
  8.948e+010      -0.573018       -0.239531       0.121482        0.00977218      0.95465         0.790351        0.0945212       -0.575746      
  9.056e+010      -0.565972       -0.215451       0.120624        0.00433632      0.951652        0.757274        0.0863459       -0.568753      
  9.164e+010      -0.572455       -0.200448       0.120079        0.00269061      0.953339        0.734742        0.0867003       -0.57692       
  9.272e+010      -0.565478       -0.194157       0.115487        0.00151756      0.949553        0.72185         0.0896477       -0.570813      
  9.38e+010       -0.576595       -0.181277       0.11585         0.00117415      0.959313        0.701295        0.0868281       -0.587627      
  9.488e+010      -0.574355       -0.182096       0.111562        0.0024925       0.965018        0.698832        0.100452        -0.58625       
  9.596e+010      -0.574653       -0.167043       0.110775        0.0044874       0.977267        0.676557        0.0819745       -0.593251      
  9.704e+010      -0.575423       -0.149107       0.111505        0.00522029      0.98833         0.647478        0.0661619       -0.605996      
  9.812e+010      -0.584954       -0.151305       0.11151         0.00823588      1.0071          0.626966        0.0636103       -0.615463      
  9.92e+010       -0.58864        -0.126767       0.111645        0.0105729       1.01188         0.598089        0.0575512       -0.611365      
  1.0028e+011     -0.592085       -0.120331       0.114643        0.0108549       1.02997         0.566986        0.05375         -0.628616      
  1.0136e+011     -0.592598       -0.110633       0.111566        0.0122844       1.04079         0.54617         0.0438081       -0.630584      
  1.0244e+011     -0.590228       -0.101592       0.112435        0.0124494       1.04618         0.519417        0.0324441       -0.62549       
  1.0352e+011     -0.597378       -0.0879624      0.110468        0.0171525       1.0599          0.495815        0.010129        -0.64454       
  1.046e+011      -0.5947         -0.0761536      0.115451        0.0182735       1.0655          0.472529        0.0106943       -0.650094      
  1.0568e+011     -0.59951        -0.0551407      0.118959        0.0174533       1.07153         0.439077        -0.0189802      -0.649721      
  1.0676e+011     -0.598487       -0.0538908      0.119486        0.0142297       1.06915         0.41656         -0.0241017      -0.65922       
  1.0784e+011     -0.59865        -0.0414573      0.120311        0.0162966       1.06127         0.390903        -0.0426326      -0.63673       
  1.0892e+011     -0.597163       -0.0299571      0.121098        0.0161837       1.05553         0.375039        -0.0518162      -0.634995      
  1.1e+011        -0.60404        -0.0169957      0.123254        0.0168797       1.06156         0.359466        -0.0481812      -0.643749      
END_DB

