! VERSION = 6.00
BEGIN_HEADER
 ICCAP_INPUTS
  Vds        V  D GROUND SMU1 0 CON        4.5
  freq       F  LIN        1    2e+009     1.1e+011   101  1.08e+009 
  Vgs        V  G GROUND SMU2 0 CON        -1.7
 ICCAP_OUTPUTS
  S_deemb    S  P1 P2 GROUND NWA B
END_HEADER

BEGIN_DB
 ICCAP_VAR Vds        4.5            
 ICCAP_VAR Vgs        -1.7           

 #freq            R:S_deemb(1,1)  I:S_deemb(1,1)  R:S_deemb(1,2)  I:S_deemb(1,2)  R:S_deemb(2,1)  I:S_deemb(2,1)  R:S_deemb(2,2)  I:S_deemb(2,2) 
  2e+009          0.999052        -0.041816       6.95732e-006    0.0155106       -0.00206756     0.0156595       0.998627        -0.0364782     
  3.08e+009       0.997865        -0.0653695      0.000823867     0.0251035       -0.00124094     0.0253357       0.998065        -0.057235      
  4.16e+009       0.99591         -0.0884857      0.00174253      0.0338675       -0.000222936    0.0341648       0.99696         -0.0776126     
  5.24e+009       0.993232        -0.112062       0.00366803      0.0438198       0.00173574      0.0442019       0.994686        -0.0984638     
  6.32e+009       0.989423        -0.134492       0.00602929      0.0523859       0.00410071      0.0528523       0.991589        -0.11818       
  7.4e+009        0.985859        -0.15694        0.00801176      0.0608017       0.00619437      0.0613241       0.988863        -0.138182      
  8.48e+009       0.981156        -0.179594       0.0110253       0.0693631       0.00922045      0.0699784       0.984969        -0.15853       
  9.56e+009       0.97599         -0.201764       0.0141451       0.0777474       0.0124275       0.0784144       0.98074         -0.178838      
  1.064e+010      0.970462        -0.223917       0.0174896       0.0861696       0.0157741       0.0869316       0.976469        -0.198421      
  1.172e+010      0.964264        -0.245303       0.0210953       0.0942317       0.0194639       0.0950146       0.971651        -0.217249      
  1.28e+010       0.95774         -0.267761       0.024912        0.102908        0.0233324       0.103754        0.966806        -0.23658       
  1.388e+010      0.950267        -0.290179       0.0300912       0.11174         0.0285836       0.112683        0.960707        -0.256661      
  1.496e+010      0.94118         -0.311661       0.0358602       0.119619        0.0343648       0.120571        0.953295        -0.2765        
  1.604e+010      0.932688        -0.331887       0.0411202       0.126628        0.0397039       0.127653        0.946541        -0.295485      
  1.712e+010      0.923807        -0.352349       0.0466213       0.134294        0.0452897       0.135366        0.939496        -0.314089      
  1.82e+010       0.914092        -0.372756       0.0529497       0.141691        0.0516637       0.142786        0.931964        -0.332336      
  1.928e+010      0.902797        -0.393241       0.0607435       0.149071        0.0595877       0.150173        0.922812        -0.350811      
  2.036e+010      0.891092        -0.41204        0.0678511       0.154656        0.0667265       0.155782        0.913575        -0.3681        
  2.144e+010      0.880108        -0.432074       0.0752483       0.1615          0.0742232       0.162651        0.904662        -0.386409      
  2.252e+010      0.868553        -0.450864       0.0829409       0.167644        0.0819483       0.168809        0.895944        -0.403755      
  2.36e+010       0.855195        -0.469464       0.0916414       0.172993        0.090797        0.174199        0.88501         -0.420854      
  2.468e+010      0.842075        -0.48556        0.1005          0.177365        0.099739        0.178553        0.8741          -0.437141      
  2.576e+010      0.830222        -0.502181       0.108781        0.18202         0.108021        0.183199        0.863366        -0.454057      
  2.684e+010      0.815589        -0.519644       0.117915        0.185721        0.117351        0.187051        0.851987        -0.47082       
  2.792e+010      0.802885        -0.535408       0.126978        0.188916        0.126396        0.190171        0.840451        -0.485752      
  2.9e+010        0.787561        -0.549609       0.136694        0.191507        0.136253        0.192722        0.828375        -0.499269      
  3.008e+010      0.775136        -0.563981       0.145041        0.193721        0.144448        0.1949          0.817333        -0.512902      
  3.116e+010      0.761805        -0.577618       0.155126        0.196324        0.154795        0.197393        0.804751        -0.527686      
  3.224e+010      0.747066        -0.592452       0.164012        0.197252        0.163728        0.198365        0.792826        -0.542806      
  3.332e+010      0.733108        -0.60608        0.172709        0.197693        0.172661        0.198841        0.781274        -0.556796      
  3.44e+010       0.714584        -0.62113        0.182175        0.198843        0.182292        0.199885        0.766112        -0.570608      
  3.548e+010      0.699771        -0.633847       0.192334        0.199067        0.192289        0.199985        0.753501        -0.582087      
  3.656e+010      0.686847        -0.645367       0.20062         0.1993          0.200683        0.200188        0.741444        -0.59533       
  3.764e+010      0.671915        -0.660087       0.209932        0.198606        0.209942        0.19978         0.72777         -0.609722      
  3.872e+010      0.65553         -0.672816       0.217724        0.198265        0.218361        0.199078        0.712724        -0.623029      
  3.98e+010       0.63632         -0.68031        0.226299        0.196476        0.226304        0.197465        0.69819         -0.630611      
  4.088e+010      0.62005         -0.691119       0.235431        0.194198        0.235435        0.195279        0.683718        -0.641356      
  4.196e+010      0.60412         -0.699576       0.243729        0.192617        0.244188        0.193308        0.669352        -0.654197      
  4.304e+010      0.588542        -0.710412       0.252734        0.19098         0.252952        0.192001        0.653705        -0.663822      
  4.412e+010      0.569591        -0.720725       0.263361        0.188929        0.263943        0.189747        0.637224        -0.67414       
  4.52e+010       0.553245        -0.725482       0.27056         0.184362        0.270851        0.1851          0.624451        -0.678599      
  4.628e+010      0.535706        -0.730338       0.278401        0.179885        0.278774        0.180828        0.609309        -0.684867      
  4.736e+010      0.521437        -0.737683       0.286869        0.175139        0.287232        0.175786        0.597107        -0.694244      
  4.844e+010      0.504646        -0.744016       0.292107        0.171036        0.292689        0.171314        0.581878        -0.7011        
  4.952e+010      0.483268        -0.750063       0.301328        0.165065        0.302079        0.165557        0.563204        -0.708785      
  5.06e+010       0.472017        -0.750083       0.306619        0.162281        0.307247        0.162824        0.555914        -0.714599      
  5.168e+010      0.455465        -0.746484       0.305455        0.155307        0.306092        0.155194        0.548811        -0.707747      
  5.276e+010      0.459646        -0.771741       0.319649        0.16073         0.320334        0.160788        0.533874        -0.744925      
  5.384e+010      0.437155        -0.776206       0.325132        0.152132        0.326128        0.152586        0.51653         -0.741953      
  5.492e+010      0.416635        -0.780028       0.331543        0.144781        0.332698        0.144621        0.496078        -0.747136      
  5.6e+010        0.401234        -0.789002       0.338417        0.143132        0.338311        0.142165        0.486359        -0.757705      
  5.708e+010      0.384169        -0.790617       0.344813        0.13653         0.345673        0.1373          0.467574        -0.759332      
  5.816e+010      0.364374        -0.790236       0.352377        0.128367        0.353223        0.128464        0.450802        -0.764568      
  5.924e+010      0.35147         -0.793952       0.354128        0.123523        0.354969        0.123523        0.440602        -0.765131      
  6.032e+010      0.333773        -0.792722       0.36038         0.115602        0.361653        0.11499         0.422981        -0.767692      
  6.14e+010       0.319036        -0.798002       0.367649        0.110448        0.3682          0.109941        0.412431        -0.77739       
  6.248e+010      0.308746        -0.794349       0.370328        0.100216        0.371202        0.100072        0.401788        -0.77389       
  6.356e+010      0.290041        -0.793267       0.374435        0.0927526       0.375264        0.0921549       0.380843        -0.78542       
  6.464e+010      0.286535        -0.794761       0.371377        0.0900579       0.372166        0.0888672       0.376358        -0.786404      
  6.572e+010      0.277297        -0.79175        0.370603        0.0830424       0.370909        0.0830719       0.354557        -0.789972      
  6.68e+010       0.270453        -0.80496        0.377591        0.0843366       0.378588        0.0835208       0.346216        -0.798939      
  6.788e+010      0.259958        -0.81383        0.383791        0.0786594       0.38403         0.0799671       0.327814        -0.802836      
  6.896e+010      0.222386        -0.826575       0.395236        0.0728391       0.394898        0.0750242       0.319176        -0.79449       
  7.004e+010      0.209702        -0.81917        0.40015         0.0632666       0.399072        0.0657353       0.290693        -0.807335      
  7.112e+010      0.193037        -0.820088       0.403463        0.0540689       0.403227        0.0563899       0.273315        -0.8037        
  7.22e+010       0.184802        -0.819938       0.408769        0.0460788       0.408579        0.0486887       0.262869        -0.814566      
  7.328e+010      0.163454        -0.814542       0.41038         0.0375608       0.410532        0.0404943       0.256278        -0.807855      
  7.436e+010      0.149592        -0.812097       0.414709        0.0280725       0.414347        0.03165         0.240769        -0.80612       
  7.544e+010      0.132379        -0.806218       0.418301        0.0180816       0.418226        0.0211784       0.223655        -0.799618      
  7.652e+010      0.120554        -0.810745       0.420066        0.00745282      0.4201          0.0102765       0.202322        -0.799155      
  7.76e+010       0.115349        -0.812805       0.419171        -0.00187949     0.41916         0.00130534      0.185081        -0.802794      
  7.868e+010      0.0981306       -0.806342       0.421347        -0.010895       0.421343        -0.00776902     0.183773        -0.811778      
  7.976e+010      0.0842991       -0.803193       0.420295        -0.0224039      0.420569        -0.0189278      0.175684        -0.803197      
  8.084e+010      0.0747235       -0.793681       0.412957        -0.0325437      0.41354         -0.0287983      0.165256        -0.796859      
  8.192e+010      0.0674488       -0.792688       0.409697        -0.03156        0.410618        -0.0277847      0.161945        -0.799736      
  8.3e+010        0.0643516       -0.802485       0.40888         -0.0394479      0.409683        -0.0360328      0.143565        -0.796316      
  8.408e+010      0.0537362       -0.803449       0.407442        -0.0458077      0.408509        -0.0417088      0.126758        -0.798711      
  8.516e+010      0.0366524       -0.796806       0.407634        -0.0539682      0.408534        -0.0496132      0.123381        -0.80983       
  8.624e+010      0.0304082       -0.79575        0.402257        -0.0557898      0.402593        -0.051637       0.116651        -0.801552      
  8.732e+010      0.0178661       -0.795893       0.403544        -0.0560512      0.403217        -0.0536248      0.105632        -0.809856      
  8.84e+010       0.00756395      -0.802747       0.40578         -0.057926       0.405859        -0.0561261      0.0933135       -0.804949      
  8.948e+010      -0.0154214      -0.815562       0.415836        -0.0656168      0.415945        -0.0632781      0.0693269       -0.80203       
  9.056e+010      -0.0254552      -0.799298       0.413477        -0.0827983      0.414113        -0.0803393      0.0532314       -0.796186      
  9.164e+010      -0.0471164      -0.787897       0.41026         -0.0923726      0.41044         -0.0902288      0.0470081       -0.804562      
  9.272e+010      -0.045392       -0.786525       0.401258        -0.0989659      0.401572        -0.0962853      0.0423357       -0.793047      
  9.38e+010       -0.0690968      -0.779317       0.399566        -0.105586       0.399746        -0.102808       0.0338932       -0.808318      
  9.488e+010      -0.0734108      -0.789822       0.391887        -0.108312       0.39241         -0.105059       0.0418553       -0.801772      
  9.596e+010      -0.0788384      -0.779266       0.389617        -0.110534       0.390098        -0.107621       0.0171718       -0.803736      
  9.704e+010      -0.0878729      -0.766717       0.388682        -0.115725       0.388353        -0.114628       -0.00603765     -0.813145      
  9.812e+010      -0.0952468      -0.782877       0.386542        -0.116317       0.38539         -0.117211       -0.014241       -0.812493      
  9.92e+010       -0.11863        -0.770653       0.382767        -0.114666       0.380138        -0.118974       -0.0192342      -0.799842      
  1.0028e+011     -0.131834       -0.76903        0.388621        -0.115884       0.384942        -0.125102       -0.0233392      -0.816323      
  1.0136e+011     -0.135629       -0.766228       0.384651        -0.118531       0.380657        -0.130533       -0.0398585      -0.812844      
  1.0244e+011     -0.13794        -0.764459       0.383385        -0.124196       0.37894         -0.13745        -0.0564672      -0.802296      
  1.0352e+011     -0.151581       -0.763646       0.375874        -0.123165       0.371568        -0.135451       -0.0853783      -0.809617      
  1.046e+011      -0.155901       -0.763568       0.380558        -0.120166       0.376886        -0.130931       -0.077831       -0.80711       
  1.0568e+011     -0.176527       -0.75531        0.388144        -0.127607       0.385518        -0.134456       -0.106229       -0.803732      
  1.0676e+011     -0.182773       -0.763871       0.38963         -0.141024       0.388072        -0.144355       -0.113363       -0.814025      
  1.0784e+011     -0.193495       -0.762543       0.386862        -0.149135       0.38626         -0.150315       -0.134828       -0.785858      
  1.0892e+011     -0.203774       -0.766362       0.381549        -0.15808        0.382114        -0.156447       -0.148636       -0.779724      
  1.1e+011        -0.230095       -0.768092       0.375399        -0.162141       0.376495        -0.158788       -0.147678       -0.780002      
END_DB

