! VERSION = 6.00
BEGIN_HEADER
 ICCAP_INPUTS
  Vds        V  D GROUND SMU1 0 CON        4.5
  freq       F  LIN        1    2e+009     1.1e+011   101  1.08e+009 
  Vgs        V  G GROUND SMU2 0 CON        -0.5
 ICCAP_OUTPUTS
  S_deemb    S  P1 P2 GROUND NWA B
END_HEADER

BEGIN_DB
 ICCAP_VAR Vds        4.5            
 ICCAP_VAR Vgs        -0.5           

 #freq            R:S_deemb(1,1)  I:S_deemb(1,1)  R:S_deemb(1,2)  I:S_deemb(1,2)  R:S_deemb(2,1)  I:S_deemb(2,1)  R:S_deemb(2,2)  I:S_deemb(2,2) 
  2e+009          0.993131        -0.101232       0.00286674      0.00977372      -3.02783        0.282411        0.839394        -0.0380769     
  3.08e+009       0.984564        -0.158203       0.00363098      0.016149        -3.00438        0.426256        0.837445        -0.0645283     
  4.16e+009       0.972852        -0.213          0.00459612      0.0217516       -2.97678        0.568927        0.834901        -0.0885288     
  5.24e+009       0.955946        -0.268396       0.0065045       0.0283331       -2.93365        0.711309        0.829326        -0.113916      
  6.32e+009       0.936142        -0.318982       0.00878717      0.033575        -2.88005        0.840983        0.822822        -0.136068      
  7.4e+009        0.914628        -0.369407       0.0107559       0.0386566       -2.83037        0.974989        0.817289        -0.158353      
  8.48e+009       0.889024        -0.417093       0.0136392       0.0436454       -2.76247        1.09976         0.809092        -0.180556      
  9.56e+009       0.860961        -0.462962       0.0166306       0.0484052       -2.69324        1.22221         0.800662        -0.202386      
  1.064e+010      0.830524        -0.507166       0.0197665       0.0531026       -2.61538        1.33814         0.791786        -0.223521      
  1.172e+010      0.798147        -0.547616       0.0231099       0.0572795       -2.53156        1.44608         0.78228         -0.243255      
  1.28e+010       0.762634        -0.587855       0.0266606       0.0617942       -2.44149        1.55289         0.771735        -0.2636        
  1.388e+010      0.724401        -0.623527       0.0312877       0.0662063       -2.33767        1.64707         0.758532        -0.283686      
  1.496e+010      0.684218        -0.655263       0.0360799       0.0695109       -2.23464        1.73281         0.744072        -0.301546      
  1.604e+010      0.645879        -0.684024       0.0403555       0.0721947       -2.13432        1.80886         0.731958        -0.318456      
  1.712e+010      0.604197        -0.711342       0.0447948       0.0751556       -2.02715        1.88466         0.718811        -0.335273      
  1.82e+010       0.561907        -0.734329       0.0496538       0.0775444       -1.91813        1.94914         0.704313        -0.350437      
  1.928e+010      0.518202        -0.75323        0.0553687       0.0797097       -1.8023         1.99828         0.687603        -0.364507      
  2.036e+010      0.474946        -0.769603       0.0602686       0.0805515       -1.69148        2.04723         0.673175        -0.376446      
  2.144e+010      0.432676        -0.78417        0.065371        0.0818199       -1.57877        2.08434         0.656797        -0.39068       
  2.252e+010      0.389846        -0.79531        0.0698539       0.0826706       -1.46766        2.11595         0.642032        -0.401122      
  2.36e+010       0.34834         -0.803028       0.0749822       0.0830219       -1.36118        2.13996         0.625594        -0.410632      
  2.468e+010      0.306874        -0.806693       0.0799263       0.08247         -1.2522         2.1555          0.610135        -0.419247      
  2.576e+010      0.270257        -0.809227       0.0842266       0.0823413       -1.15125        2.16292         0.59548         -0.428926      
  2.684e+010      0.231582        -0.811208       0.0886571       0.081684        -1.05272        2.16732         0.581141        -0.436493      
  2.792e+010      0.196267        -0.808809       0.0927846       0.0804246       -0.954573       2.16454         0.566716        -0.443104      
  2.9e+010        0.159748        -0.80281        0.096613        0.0783973       -0.85703        2.15588         0.550978        -0.447076      
  3.008e+010      0.130276        -0.798622       0.0990411       0.0773166       -0.775132       2.14447         0.539396        -0.450579      
  3.116e+010      0.0975266       -0.792919       0.103574        0.0756731       -0.684822       2.13336         0.524456        -0.45726       
  3.224e+010      0.0667006       -0.786493       0.105916        0.0735302       -0.605637       2.11589         0.512666        -0.46236       
  3.332e+010      0.040278        -0.777921       0.107612        0.0719126       -0.529711       2.09414         0.502502        -0.466023      
  3.44e+010       0.0105302       -0.770225       0.109993        0.0712672       -0.454367       2.07196         0.488953        -0.470089      
  3.548e+010      -0.0149928      -0.762192       0.11368         0.069076        -0.384818       2.04944         0.476773        -0.473703      
  3.656e+010      -0.0383478      -0.75559        0.115376        0.0679624       -0.322719       2.02826         0.468172        -0.477878      
  3.764e+010      -0.0613058      -0.74746        0.117001        0.0659745       -0.261203       2.00486         0.455855        -0.483627      
  3.872e+010      -0.083936       -0.74124        0.118524        0.0654376       -0.203835       1.98179         0.44474         -0.488368      
  3.98e+010       -0.107413       -0.729072       0.120897        0.0643236       -0.145961       1.95376         0.435466        -0.488335      
  4.088e+010      -0.128808       -0.717671       0.12307         0.0618927       -0.0873821      1.92389         0.424291        -0.491304      
  4.196e+010      -0.148052       -0.706179       0.124998        0.0604927       -0.0321823      1.8973          0.414556        -0.497538      
  4.304e+010      -0.169717       -0.699996       0.126894        0.0587433       0.0164228       1.87273         0.402877        -0.498917      
  4.412e+010      -0.193962       -0.686298       0.129859        0.0567434       0.0735691       1.84482         0.38944         -0.5022        
  4.52e+010       -0.208719       -0.673126       0.130876        0.0542407       0.114077        1.80806         0.383222        -0.500426      
  4.628e+010      -0.224928       -0.659125       0.132091        0.0515944       0.156641        1.77371         0.372612        -0.49972       
  4.736e+010      -0.240863       -0.647388       0.13256         0.0478712       0.195702        1.74315         0.364818        -0.502874      
  4.844e+010      -0.255011       -0.63654        0.132495        0.0471208       0.232297        1.71303         0.357033        -0.503529      
  4.952e+010      -0.275666       -0.619858       0.133324        0.0443217       0.275642        1.67774         0.344675        -0.504297      
  5.06e+010       -0.287972       -0.605411       0.135353        0.0431622       0.305977        1.65792         0.342156        -0.508736      
  5.168e+010      -0.286448       -0.578246       0.131808        0.0418115       0.332039        1.6071          0.34291         -0.502877      
  5.276e+010      -0.295613       -0.614436       0.135418        0.0418978       0.358164        1.61582         0.325782        -0.524068      
  5.384e+010      -0.317998       -0.594575       0.136211        0.0394377       0.396418        1.57955         0.319225        -0.519688      
  5.492e+010      -0.334752       -0.576914       0.135568        0.0376583       0.431621        1.54688         0.307064        -0.518575      
  5.6e+010        -0.350779       -0.569069       0.136297        0.0368009       0.46376         1.52567         0.301545        -0.526562      
  5.708e+010      -0.362908       -0.553644       0.137971        0.0358944       0.497052        1.49132         0.290394        -0.523803      
  5.816e+010      -0.374819       -0.535424       0.139178        0.0326726       0.523557        1.4532          0.279433        -0.52651       
  5.924e+010      -0.382531       -0.526196       0.138273        0.0322151       0.543961        1.42537         0.277678        -0.526633      
  6.032e+010      -0.392031       -0.509492       0.138485        0.0286697       0.569233        1.39009         0.265239        -0.523625      
  6.14e+010       -0.404429       -0.49906        0.138945        0.027436        0.595833        1.36665         0.259943        -0.530297      
  6.248e+010      -0.404476       -0.48303        0.137709        0.022994        0.606454        1.33033         0.254004        -0.524344      
  6.356e+010      -0.412839       -0.469306       0.1367          0.0214955       0.628639        1.3017          0.240037        -0.530474      
  6.464e+010      -0.41165        -0.468042       0.134391        0.0214418       0.635549        1.28395         0.244606        -0.532151      
  6.572e+010      -0.41518        -0.459961       0.130633        0.0221131       0.653136        1.25947         0.234801        -0.532819      
  6.68e+010       -0.427485       -0.460853       0.132051        0.0239006       0.676142        1.24117         0.229665        -0.54219       
  6.788e+010      -0.437916       -0.455569       0.13304         0.0239199       0.705392        1.23767         0.218382        -0.544515      
  6.896e+010      -0.470467       -0.451855       0.136697        0.0237893       0.739962        1.26693         0.211358        -0.535156      
  7.004e+010      -0.470637       -0.45399        0.138595        0.0219264       0.745494        1.2544          0.192713        -0.545695      
  7.112e+010      -0.476709       -0.454808       0.139217        0.0186159       0.744452        1.21122         0.183433        -0.542162      
  7.22e+010       -0.473973       -0.442209       0.140163        0.0166182       0.7486          1.18555         0.178913        -0.551608      
  7.328e+010      -0.485377       -0.426652       0.139934        0.0159874       0.765235        1.16163         0.176845        -0.546044      
  7.436e+010      -0.495678       -0.374903       0.140059        0.0131346       0.797817        1.04677         0.168287        -0.541905      
  7.544e+010      -0.50283        -0.352221       0.140901        0.0101215       0.80926         1.00123         0.156807        -0.535154      
  7.652e+010      -0.507659       -0.346928       0.140051        0.00699278      0.817739        0.972854        0.143128        -0.534787      
  7.76e+010       -0.506733       -0.339115       0.137516        0.00538507      0.822876        0.94871         0.134527        -0.537954      
  7.868e+010      -0.512196       -0.323225       0.137494        0.00344649      0.829527        0.923664        0.138074        -0.545364      
  7.976e+010      -0.514545       -0.312578       0.135804        0.000384529     0.829869        0.896617        0.136134        -0.535944      
  8.084e+010      -0.514213       -0.299178       0.131405        -0.00125649     0.824971        0.87967         0.135276        -0.531311      
  8.192e+010      -0.518094       -0.299436       0.128803        0.00216937      0.835439        0.877616        0.137342        -0.536656      
  8.3e+010        -0.52388        -0.292484       0.128018        0.00146083      0.844192        0.853015        0.127237        -0.536376      
  8.408e+010      -0.525842       -0.283821       0.127344        0.00103309      0.851964        0.835097        0.117952        -0.541662      
  8.516e+010      -0.531164       -0.26886        0.125881        0.000382829     0.861703        0.81435         0.120008        -0.54991       
  8.624e+010      -0.535819       -0.260626       0.123796        0.00275677      0.868177        0.800854        0.1191          -0.54718       
  8.732e+010      -0.543941       -0.251632       0.124336        0.00507669      0.885815        0.782627        0.113727        -0.559023      
  8.84e+010       -0.552035       -0.245338       0.125359        0.00690338      0.901057        0.763156        0.104704        -0.558138      
  8.948e+010      -0.564072       -0.231209       0.130813        0.00683167      0.920245        0.726023        0.0833798       -0.558835      
  9.056e+010      -0.557027       -0.207669       0.130196        0.00136277      0.916996        0.695068        0.0746027       -0.552015      
  9.164e+010      -0.563669       -0.192873       0.129619        -0.000351242    0.9182          0.673348        0.0749911       -0.560169      
  9.272e+010      -0.556588       -0.186667       0.125058        -0.00192421     0.914231        0.659986        0.0775294       -0.553332      
  9.38e+010       -0.567343       -0.174292       0.125534        -0.00220898     0.922285        0.640664        0.0746914       -0.570415      
  9.488e+010      -0.565392       -0.174095       0.121319        -0.00086534     0.927064        0.637677        0.0875572       -0.56747       
  9.596e+010      -0.56502        -0.15946        0.120759        0.000822193     0.937571        0.616892        0.0689251       -0.573701      
  9.704e+010      -0.565188       -0.142342       0.121464        0.00141366      0.947182        0.589639        0.0535539       -0.586396      
  9.812e+010      -0.574411       -0.144355       0.121441        0.00396161      0.963436        0.570646        0.0516992       -0.594241      
  9.92e+010       -0.577862       -0.120113       0.121713        0.00595865      0.966865        0.542947        0.0458022       -0.589452      
  1.0028e+011     -0.581263       -0.113673       0.124465        0.00636479      0.982887        0.514258        0.0427745       -0.606299      
  1.0136e+011     -0.581597       -0.103899       0.121628        0.00759645      0.991741        0.49464         0.032893        -0.607435      
  1.0244e+011     -0.578915       -0.0948113      0.122601        0.00747741      0.996408        0.470017        0.0220558       -0.601787      
  1.0352e+011     -0.585259       -0.0820792      0.120592        0.0116287       1.00765         0.448417        -0.000403136    -0.619452      
  1.046e+011      -0.582292       -0.0707636      0.125237        0.0126535       1.01242         0.427487        0.00191182      -0.624542      
  1.0568e+011     -0.586782       -0.0500729      0.128608        0.0116125       1.0179          0.397406        -0.0271084      -0.623344      
  1.0676e+011     -0.585867       -0.0493038      0.129253        0.0083078       1.01544         0.375883        -0.0310119      -0.633562      
  1.0784e+011     -0.585911       -0.0370491      0.129852        0.0100869       1.00823         0.352647        -0.0490008      -0.610783      
  1.0892e+011     -0.584218       -0.0259673      0.130516        0.00967951      1.00248         0.33857         -0.0583576      -0.609573      
  1.1e+011        -0.590614       -0.0132891      0.132455        0.0102485       1.00748         0.324038        -0.0546482      -0.617345      
END_DB

