! VERSION = 6.00
BEGIN_HEADER
 ICCAP_INPUTS
  Vds        V  D GROUND SMU1 0 CON        4.5
  freq       F  LIN        1    2e+009     1.1e+011   101  1.08e+009 
  Vgs        V  G GROUND SMU2 0 CON        -0.6
 ICCAP_OUTPUTS
  S_deemb    S  P1 P2 GROUND NWA B
END_HEADER

BEGIN_DB
 ICCAP_VAR Vds        4.5            
 ICCAP_VAR Vgs        -0.6           

 #freq            R:S_deemb(1,1)  I:S_deemb(1,1)  R:S_deemb(1,2)  I:S_deemb(1,2)  R:S_deemb(2,1)  I:S_deemb(2,1)  R:S_deemb(2,2)  I:S_deemb(2,2) 
  2e+009          0.994238        -0.0998308      0.00234934      0.0102388       -2.83779        0.263213        0.84041         -0.0396894     
  3.08e+009       0.985806        -0.155889       0.00318209      0.016848        -2.81675        0.398587        0.838064        -0.065823      
  4.16e+009       0.974409        -0.209946       0.00421523      0.0226816       -2.79277        0.533115        0.835301        -0.0896661     
  5.24e+009       0.957951        -0.264509       0.00622832      0.0294857       -2.75273        0.666859        0.829637        -0.114864      
  6.32e+009       0.938651        -0.314351       0.00859103      0.0349507       -2.70235        0.788933        0.823023        -0.136976      
  7.4e+009        0.917524        -0.364217       0.0106539       0.0402325       -2.65792        0.915412        0.817377        -0.159213      
  8.48e+009       0.892552        -0.411268       0.0136803       0.0454297       -2.59376        1.03278         0.809086        -0.181307      
  9.56e+009       0.865119        -0.4567         0.0167919       0.0503543       -2.52923        1.14827         0.800522        -0.203132      
  1.064e+010      0.835366        -0.500401       0.0200565       0.0552134       -2.45676        1.25716         0.791571        -0.224126      
  1.172e+010      0.80368         -0.540486       0.0235727       0.0595929       -2.37826        1.35888         0.782009        -0.243833      
  1.28e+010       0.768939        -0.58038        0.0272839       0.0642421       -2.29464        1.45969         0.771453        -0.264056      
  1.388e+010      0.731678        -0.615788       0.0320303       0.0687962       -2.19691        1.54835         0.758296        -0.283994      
  1.496e+010      0.692304        -0.647482       0.0370268       0.0722547       -2.10077        1.6295          0.743858        -0.3018        
  1.604e+010      0.654695        -0.676288       0.041486        0.0750003       -2.00694        1.70172         0.731671        -0.318749      
  1.712e+010      0.613761        -0.70365        0.0461095       0.0780604       -1.90741        1.77403         0.718575        -0.33538       
  1.82e+010       0.572265        -0.726908       0.0511254       0.0806103       -1.80507        1.83547         0.704078        -0.350565      
  1.928e+010      0.529465        -0.745941       0.0570389       0.082829        -1.69604        1.88222         0.687662        -0.364561      
  2.036e+010      0.486932        -0.762587       0.0620898       0.083765        -1.59213        1.9288          0.673164        -0.376465      
  2.144e+010      0.445488        -0.777574       0.0674266       0.0850998       -1.48614        1.96389         0.656969        -0.390819      
  2.252e+010      0.403137        -0.78925        0.0720769       0.0860513       -1.38257        1.99557         0.642335        -0.401202      
  2.36e+010       0.361819        -0.797597       0.0773574       0.0864373       -1.2822         2.01967         0.625844        -0.410797      
  2.468e+010      0.321062        -0.801766       0.0825577       0.0859448       -1.17994        2.03517         0.610483        -0.419459      
  2.576e+010      0.28514         -0.80482        0.0870636       0.0858053       -1.08461        2.04245         0.595936        -0.429189      
  2.684e+010      0.246693        -0.807697       0.0916976       0.0852351       -0.991687       2.04779         0.581673        -0.436946      
  2.792e+010      0.211649        -0.8059         0.0958869       0.0840187       -0.899305       2.04616         0.567157        -0.443624      
  2.9e+010        0.174918        -0.800544       0.100018        0.0819932       -0.807088       2.03961         0.551611        -0.447744      
  3.008e+010      0.145816        -0.797044       0.10269         0.0809017       -0.729606       2.0296          0.539824        -0.451449      
  3.116e+010      0.113161        -0.791735       0.107336        0.0790117       -0.644198       2.02017         0.524913        -0.458285      
  3.224e+010      0.0825109       -0.786207       0.109919        0.076965        -0.568787       2.0042          0.51322         -0.463617      
  3.332e+010      0.055841        -0.778036       0.111853        0.0752674       -0.49631        1.9848          0.502722        -0.467331      
  3.44e+010       0.0258806       -0.771          0.114263        0.0746496       -0.42462        1.96459         0.489088        -0.471109      
  3.548e+010      6.64914e-005    -0.763453       0.118051        0.0721158       -0.35802        1.94395         0.476952        -0.474563      
  3.656e+010      -0.0231567      -0.756863       0.120005        0.0712005       -0.298852       1.92421         0.468472        -0.479196      
  3.764e+010      -0.0462829      -0.749231       0.121923        0.0693461       -0.239512       1.90233         0.455836        -0.485067      
  3.872e+010      -0.0689699      -0.743374       0.124021        0.0682068       -0.184577       1.88084         0.445031        -0.490232      
  3.98e+010       -0.0925269      -0.731532       0.125769        0.0669149       -0.128949       1.85432         0.435172        -0.489898      
  4.088e+010      -0.114238       -0.720561       0.128231        0.0646847       -0.0738283      1.82628         0.424657        -0.492392      
  4.196e+010      -0.133562       -0.709111       0.130547        0.0633415       -0.0207225      1.80098         0.414285        -0.498769      
  4.304e+010      -0.155011       -0.702899       0.132185        0.0612855       0.0261918       1.77786         0.402341        -0.500455      
  4.412e+010      -0.17947        -0.68979        0.13552         0.0592974       0.0809345       1.75173         0.389052        -0.503656      
  4.52e+010       -0.194938       -0.677183       0.136403        0.0568719       0.119925        1.71701         0.382509        -0.502095      
  4.628e+010      -0.211205       -0.663464       0.137782        0.0539484       0.160443        1.68451         0.37227         -0.50126       
  4.736e+010      -0.227779       -0.651762       0.138534        0.0497608       0.197487        1.65547         0.363871        -0.50443       
  4.844e+010      -0.241475       -0.641471       0.138458        0.0494657       0.233408        1.6265          0.356458        -0.50555       
  4.952e+010      -0.262156       -0.624988       0.13974         0.0466929       0.274486        1.59287         0.343257        -0.5065        
  5.06e+010       -0.274733       -0.610248       0.141855        0.0452091       0.303511        1.57416         0.34092         -0.510917      
  5.168e+010      -0.273929       -0.583479       0.13846         0.0435148       0.328323        1.52573         0.341954        -0.50436       
  5.276e+010      -0.282871       -0.618958       0.142203        0.0437889       0.353969        1.53445         0.324158        -0.526054      
  5.384e+010      -0.305583       -0.600118       0.143123        0.0410133       0.389552        1.49942         0.318658        -0.520617      
  5.492e+010      -0.321923       -0.582598       0.142339        0.0389613       0.424026        1.46851         0.305341        -0.520188      
  5.6e+010        -0.338041       -0.574666       0.143556        0.0383754       0.456226        1.44766         0.299298        -0.529674      
  5.708e+010      -0.350322       -0.559307       0.144829        0.0366015       0.487102        1.41455         0.288943        -0.526218      
  5.816e+010      -0.362363       -0.54129        0.146208        0.0336075       0.51352         1.37836         0.277837        -0.528508      
  5.924e+010      -0.370935       -0.532636       0.145516        0.0323609       0.531491        1.35243         0.276409        -0.527349      
  6.032e+010      -0.379594       -0.51634        0.145836        0.0296313       0.555719        1.31823         0.263148        -0.525756      
  6.14e+010       -0.393341       -0.504545       0.145865        0.0276177       0.582501        1.29498         0.258149        -0.531371      
  6.248e+010      -0.392895       -0.488789       0.145343        0.0233789       0.592045        1.26114         0.252345        -0.526042      
  6.356e+010      -0.401461       -0.474579       0.143686        0.0219462       0.612957        1.23315         0.237413        -0.532798      
  6.464e+010      -0.401392       -0.47536        0.141552        0.0224595       0.618733        1.2162          0.243756        -0.533088      
  6.572e+010      -0.403356       -0.466426       0.138598        0.0228026       0.635278        1.19282         0.232263        -0.533075      
  6.68e+010       -0.416483       -0.467522       0.140288        0.0239145       0.658019        1.17518         0.227709        -0.545092      
  6.788e+010      -0.423176       -0.463994       0.140459        0.0240187       0.679637        1.14957         0.215614        -0.545634      
  6.896e+010      -0.453451       -0.451726       0.144138        0.023296        0.705346        1.12546         0.208317        -0.534886      
  7.004e+010      -0.458826       -0.435597       0.146277        0.021213        0.723888        1.08944         0.190763        -0.546432      
  7.112e+010      -0.468694       -0.424206       0.146847        0.0183757       0.73764         1.05701         0.18042         -0.543929      
  7.22e+010       -0.469804       -0.408123       0.148149        0.0159105       0.752819        1.02955         0.175583        -0.554025      
  7.328e+010      -0.480448       -0.390771       0.147179        0.014563        0.762322        1.00335         0.174551        -0.546034      
  7.436e+010      -0.483745       -0.378528       0.148046        0.0119175       0.77275         0.972556        0.164909        -0.543219      
  7.544e+010      -0.491119       -0.361575       0.148899        0.00886847      0.783273        0.942489        0.15331         -0.536366      
  7.652e+010      -0.495611       -0.356623       0.148172        0.00563769      0.791222        0.914334        0.139322        -0.536011      
  7.76e+010       -0.494718       -0.349161       0.145654        0.00379786      0.795414        0.890362        0.130301        -0.53942       
  7.868e+010      -0.500384       -0.333957       0.145538        0.00173828      0.801231        0.86614         0.133911        -0.54702       
  7.976e+010      -0.503562       -0.322575       0.143836        -0.00130998     0.803205        0.842082        0.131962        -0.537369      
  8.084e+010      -0.504048       -0.308138       0.139448        -0.00310893     0.799733        0.827998        0.130592        -0.532814      
  8.192e+010      -0.508298       -0.307989       0.136853        9.41656e-005    0.809069        0.826133        0.132372        -0.537807      
  8.3e+010        -0.512791       -0.302064       0.136051        -0.000634596    0.81537         0.79903         0.122154        -0.537196      
  8.408e+010      -0.514684       -0.293865       0.13536         -0.00110845     0.822357        0.780559        0.112376        -0.542219      
  8.516e+010      -0.520045       -0.279689       0.1341          -0.00193289     0.830541        0.760299        0.114492        -0.550717      
  8.624e+010      -0.524725       -0.270914       0.131955        0.000331891     0.836767        0.747968        0.11371         -0.547471      
  8.732e+010      -0.532675       -0.262349       0.132438        0.00247505      0.852939        0.729844        0.108208        -0.559043      
  8.84e+010       -0.54085        -0.255559       0.13358         0.00396593      0.867039        0.712045        0.0990913       -0.557657      
  8.948e+010      -0.552908       -0.242235       0.139019        0.0037261       0.886243        0.676848        0.0775585       -0.55805       
  9.056e+010      -0.546697       -0.218693       0.138178        -0.00188244     0.882937        0.647661        0.0688294       -0.5515        
  9.164e+010      -0.553088       -0.204226       0.137737        -0.00368912     0.884071        0.626563        0.0687168       -0.559669      
  9.272e+010      -0.546088       -0.198194       0.132912        -0.00532414     0.879433        0.612959        0.0710319       -0.552553      
  9.38e+010       -0.557493       -0.185559       0.133547        -0.00585037     0.886418        0.594695        0.0682468       -0.56933       
  9.488e+010      -0.555526       -0.184958       0.129308        -0.00462033     0.891632        0.592128        0.0810585       -0.566113      
  9.596e+010      -0.555535       -0.169943       0.128615        -0.00293991     0.900814        0.57283         0.0620981       -0.571897      
  9.704e+010      -0.555958       -0.15317        0.129407        -0.00269175     0.909445        0.546771        0.0461775       -0.584026      
  9.812e+010      -0.564757       -0.155815       0.12937         -0.000274422    0.924021        0.528584        0.0446412       -0.59125       
  9.92e+010       -0.568203       -0.131783       0.129469        0.0018599       0.926764        0.502608        0.0389068       -0.586131      
  1.0028e+011     -0.571544       -0.125649       0.132442        0.00210641      0.94174         0.475481        0.0363762       -0.602915      
  1.0136e+011     -0.572121       -0.11545        0.129474        0.00304623      0.949785        0.457184        0.0263038       -0.603265      
  1.0244e+011     -0.569505       -0.106257       0.130393        0.00289667      0.95428         0.433976        0.0153971       -0.597197      
  1.0352e+011     -0.575846       -0.0942328      0.128266        0.00695309      0.96363         0.414052        -0.00716649     -0.614192      
  1.046e+011      -0.572897       -0.0829785      0.132797        0.00770749      0.968142        0.39498         -0.00424224     -0.6189        
  1.0568e+011     -0.577956       -0.0624505      0.136276        0.00661626      0.97398         0.366998        -0.0324289      -0.617098      
  1.0676e+011     -0.576945       -0.0618843      0.136737        0.00309474      0.971376        0.346396        -0.0363252      -0.627874      
  1.0784e+011     -0.577084       -0.0497014      0.137151        0.0045121       0.964947        0.324889        -0.0538478      -0.604729      
  1.0892e+011     -0.575846       -0.0387214      0.137769        0.00413617      0.959532        0.311696        -0.0639854      -0.60322       
  1.1e+011        -0.58251        -0.0267914      0.139613        0.00445793      0.964053        0.297961        -0.0602641      -0.610521      
END_DB

