! VERSION = 6.00
BEGIN_HEADER
 ICCAP_INPUTS
  Vds        V  D GROUND SMU1 0 CON        4.5
  freq       F  LIN        1    2e+009     1.1e+011   101  1.08e+009 
  Vgs        V  G GROUND SMU2 0 CON        -1.8
 ICCAP_OUTPUTS
  S_deemb    S  P1 P2 GROUND NWA B
END_HEADER

BEGIN_DB
 ICCAP_VAR Vds        4.5            
 ICCAP_VAR Vgs        -1.8           

 #freq            R:S_deemb(1,1)  I:S_deemb(1,1)  R:S_deemb(1,2)  I:S_deemb(1,2)  R:S_deemb(2,1)  I:S_deemb(2,1)  R:S_deemb(2,2)  I:S_deemb(2,2) 
  2e+009          0.999028        -0.0414428      1.88114e-005    0.0155128       -0.000913571    0.0155787       0.998968        -0.0365134     
  3.08e+009       0.997829        -0.0647919      0.000832004     0.0250937       -8.40073e-005   0.0251864       0.998451        -0.0573455     
  4.16e+009       0.995899        -0.0876889      0.00176866      0.0338544       0.000918323     0.0339849       0.997339        -0.0776902     
  5.24e+009       0.993274        -0.111087       0.00366811      0.0438396       0.00281013      0.0439997       0.995013        -0.0985394     
  6.32e+009       0.989524        -0.133298       0.00602359      0.0524247       0.00518075      0.0526059       0.991921        -0.118244      
  7.4e+009        0.986067        -0.155591       0.00800807      0.0608549       0.00721916      0.0610556       0.989255        -0.138221      
  8.48e+009       0.98151         -0.178017       0.0110304       0.0693879       0.0102186       0.0696408       0.985288        -0.158694      
  9.56e+009       0.976354        -0.200029       0.014125        0.0777927       0.0133645       0.0780692       0.981102        -0.178914      
  1.064e+010      0.97092         -0.222024       0.0174385       0.0862385       0.0167201       0.0865428       0.976738        -0.198554      
  1.172e+010      0.964802        -0.24322        0.0210272       0.0942928       0.0203591       0.0946215       0.971978        -0.21735       
  1.28e+010       0.958416        -0.265478       0.0248483       0.102956        0.0241978       0.103317        0.96713         -0.236725      
  1.388e+010      0.951088        -0.287739       0.0300077       0.111847        0.0293941       0.112224        0.961005        -0.25693       
  1.496e+010      0.942167        -0.309055       0.0358112       0.119713        0.035167        0.120096        0.953635        -0.276709      
  1.604e+010      0.933746        -0.329111       0.0410052       0.126748        0.0404378       0.127141        0.946775        -0.295619      
  1.712e+010      0.925097        -0.349433       0.0464942       0.13444         0.0459572       0.13484         0.93983         -0.314331      
  1.82e+010       0.915499        -0.369699       0.0528011       0.141865        0.0522949       0.14227         0.932272        -0.332492      
  1.928e+010      0.904352        -0.390093       0.0605805       0.14923         0.0601433       0.149657        0.923053        -0.351071      
  2.036e+010      0.892755        -0.408796       0.0676445       0.154847        0.0672215       0.155298        0.913898        -0.368374      
  2.144e+010      0.881986        -0.428776       0.0750345       0.161742        0.0746639       0.162181        0.90488         -0.386572      
  2.252e+010      0.87058         -0.447469       0.0827257       0.167907        0.0823786       0.168329        0.896172        -0.40399       
  2.36e+010       0.857458        -0.46589        0.0914105       0.173286        0.0911402       0.173735        0.885364        -0.420993      
  2.468e+010      0.844466        -0.482004       0.10024         0.177709        0.100005        0.178162        0.874304        -0.437426      
  2.576e+010      0.832775        -0.498399       0.108504        0.182373        0.108284        0.182794        0.863507        -0.454453      
  2.684e+010      0.818378        -0.515711       0.117738        0.186187        0.117451        0.186584        0.852132        -0.470779      
  2.792e+010      0.805947        -0.531446       0.126703        0.189389        0.126632        0.189775        0.84056         -0.485869      
  2.9e+010        0.790678        -0.545768       0.136368        0.192009        0.136309        0.19242         0.828594        -0.499617      
  3.008e+010      0.778403        -0.560048       0.144686        0.194316        0.144612        0.194597        0.817447        -0.513147      
  3.116e+010      0.765234        -0.573552       0.15471         0.19687         0.154815        0.197203        0.804821        -0.52789       
  3.224e+010      0.75055         -0.58839        0.163759        0.197972        0.1638          0.198052        0.792959        -0.542952      
  3.332e+010      0.736902        -0.602116       0.172503        0.198429        0.172625        0.198774        0.781167        -0.557018      
  3.44e+010       0.718744        -0.617118       0.181889        0.199625        0.182225        0.199818        0.766228        -0.571525      
  3.548e+010      0.704087        -0.629888       0.191976        0.199769        0.191967        0.199863        0.753538        -0.582468      
  3.656e+010      0.691304        -0.641315       0.200238        0.200215        0.200409        0.200279        0.741252        -0.595435      
  3.764e+010      0.676635        -0.65632        0.209527        0.199587        0.209939        0.199725        0.727571        -0.609729      
  3.872e+010      0.660431        -0.668569       0.217547        0.199269        0.21796         0.199314        0.712725        -0.622797      
  3.98e+010       0.641654        -0.676382       0.226128        0.197604        0.226128        0.19727         0.697664        -0.631047      
  4.088e+010      0.62509         -0.687117       0.235175        0.195226        0.235453        0.195519        0.683052        -0.642413      
  4.196e+010      0.609485        -0.696059       0.243769        0.193749        0.24384         0.1934          0.668802        -0.654449      
  4.304e+010      0.593835        -0.706357       0.252525        0.191983        0.252926        0.192188        0.653596        -0.6642        
  4.412e+010      0.575154        -0.716738       0.263462        0.1898          0.263315        0.189828        0.637616        -0.674254      
  4.52e+010       0.559201        -0.721737       0.270257        0.185708        0.270645        0.185821        0.624198        -0.67887       
  4.628e+010      0.541632        -0.727034       0.278354        0.181422        0.27865         0.181349        0.608724        -0.685219      
  4.736e+010      0.527271        -0.733939       0.286751        0.176683        0.28737         0.176223        0.596865        -0.694529      
  4.844e+010      0.51112         -0.740363       0.292204        0.172292        0.2926          0.172099        0.581234        -0.701341      
  4.952e+010      0.489654        -0.746706       0.301193        0.166384        0.301786        0.166324        0.563296        -0.708743      
  5.06e+010       0.478768        -0.74687        0.307159        0.16401         0.307549        0.163664        0.555694        -0.714252      
  5.168e+010      0.462102        -0.74355        0.305578        0.156552        0.306089        0.156115        0.547789        -0.708019      
  5.276e+010      0.466511        -0.768189       0.319709        0.162213        0.320255        0.161645        0.533781        -0.744709      
  5.384e+010      0.443839        -0.772784       0.325674        0.153238        0.326311        0.152828        0.515179        -0.742988      
  5.492e+010      0.423568        -0.776478       0.331799        0.146299        0.332379        0.145811        0.496233        -0.747278      
  5.6e+010        0.408295        -0.785434       0.338925        0.144656        0.338553        0.144133        0.486041        -0.756406      
  5.708e+010      0.391141        -0.787395       0.345206        0.138639        0.34613         0.137539        0.467286        -0.759144      
  5.816e+010      0.372046        -0.787683       0.352663        0.131085        0.353262        0.129881        0.450416        -0.763871      
  5.924e+010      0.358862        -0.791915       0.354361        0.125454        0.354766        0.124558        0.439975        -0.765363      
  6.032e+010      0.341581        -0.790284       0.361129        0.117209        0.362107        0.116355        0.421796        -0.768368      
  6.14e+010       0.326152        -0.79528        0.368336        0.111673        0.368812        0.111463        0.411347        -0.776622      
  6.248e+010      0.316306        -0.79197        0.370737        0.101702        0.371451        0.10135         0.399904        -0.773327      
  6.356e+010      0.29827         -0.790664       0.375601        0.0940235       0.376057        0.093587        0.381263        -0.784415      
  6.464e+010      0.295067        -0.792358       0.3728          0.0910086       0.373624        0.0913076       0.374081        -0.78606       
  6.572e+010      0.285556        -0.78962        0.371428        0.0846717       0.37141         0.0838875       0.354183        -0.791892      
  6.68e+010       0.279121        -0.802454       0.37852         0.0860462       0.378354        0.0847357       0.346934        -0.798421      
  6.788e+010      0.269056        -0.811787       0.384482        0.0806069       0.3845          0.0817654       0.328105        -0.802035      
  6.896e+010      0.23138         -0.824409       0.396485        0.0747853       0.395741        0.0768758       0.31965         -0.794054      
  7.004e+010      0.218945        -0.817315       0.401368        0.0648382       0.399788        0.0673154       0.29109         -0.806695      
  7.112e+010      0.202028        -0.818294       0.404939        0.056479        0.404025        0.0583899       0.274204        -0.803048      
  7.22e+010       0.194305        -0.81853        0.410036        0.0480212       0.409393        0.0507101       0.263593        -0.814006      
  7.328e+010      0.173231        -0.813192       0.41221         0.0396344       0.411418        0.0423381       0.256866        -0.807316      
  7.436e+010      0.159149        -0.810938       0.416413        0.0302215       0.415291        0.0338381       0.241631        -0.805511      
  7.544e+010      0.141769        -0.804739       0.420019        0.0199205       0.419456        0.0234733       0.224098        -0.79888       
  7.652e+010      0.130067        -0.809597       0.421836        0.00932275      0.421405        0.0125766       0.203001        -0.798425      
  7.76e+010       0.124858        -0.811717       0.420967        1.08941e-005    0.420604        0.00350814      0.18582         -0.801928      
  7.868e+010      0.107995        -0.805437       0.423259        -0.00904858     0.423094        -0.00567303     0.184636        -0.81123       
  7.976e+010      0.0946484       -0.802685       0.422312        -0.0206164      0.422169        -0.016833       0.176477        -0.802403      
  8.084e+010      0.0851481       -0.792936       0.415198        -0.0308073      0.415377        -0.0266925      0.166122        -0.796277      
  8.192e+010      0.0775091       -0.792028       0.412234        -0.029907       0.41227         -0.0257508      0.162883        -0.799267      
  8.3e+010        0.0745461       -0.801801       0.411022        -0.0377512      0.411425        -0.0341002      0.144519        -0.795594      
  8.408e+010      0.0643531       -0.803185       0.409951        -0.0439883      0.410527        -0.0397513      0.127721        -0.79791       
  8.516e+010      0.0477783       -0.796489       0.410126        -0.0522153      0.410596        -0.0475968      0.124387        -0.809085      
  8.624e+010      0.041043        -0.795573       0.404699        -0.0540179      0.404746        -0.0493838      0.117729        -0.800744      
  8.732e+010      0.029001        -0.79573        0.405851        -0.0543669      0.405267        -0.0516422      0.106673        -0.809225      
  8.84e+010       0.0184974       -0.802829       0.408397        -0.0561583      0.40781         -0.0541336      0.0941889       -0.804076      
  8.948e+010      -0.00397073     -0.816104       0.418341        -0.0636821      0.418343        -0.0611476      0.0701456       -0.80118       
  9.056e+010      -0.014371       -0.799746       0.416379        -0.0809608      0.416554        -0.0781755      0.0545263       -0.795658      
  9.164e+010      -0.0361948      -0.788684       0.412951        -0.0908054      0.413053        -0.088377       0.0481237       -0.803728      
  9.272e+010      -0.033894       -0.787521       0.403768        -0.0973273      0.403855        -0.0942224      0.0436883       -0.791959      
  9.38e+010       -0.0575745      -0.780439       0.402242        -0.104097       0.402515        -0.10099        0.0351479       -0.80752       
  9.488e+010      -0.0618076      -0.791019       0.394929        -0.106666       0.395239        -0.103216       0.0432413       -0.801065      
  9.596e+010      -0.0677246      -0.780467       0.392606        -0.108996       0.392963        -0.105781       0.0182286       -0.803035      
  9.704e+010      -0.0761571      -0.767901       0.391735        -0.114068       0.391153        -0.11284        -0.00491833     -0.812322      
  9.812e+010      -0.0839037      -0.784278       0.389533        -0.114865       0.387909        -0.115302       -0.012744       -0.811914      
  9.92e+010       -0.106813       -0.772418       0.385752        -0.113199       0.38308         -0.117086       -0.0177515      -0.799224      
  1.0028e+011     -0.120376       -0.77131        0.391746        -0.114302       0.387967        -0.123478       -0.0220223      -0.815658      
  1.0136e+011     -0.123512       -0.768342       0.387731        -0.116755       0.383596        -0.128778       -0.038271       -0.812285      
  1.0244e+011     -0.125738       -0.766679       0.386705        -0.122538       0.3819          -0.135798       -0.0550699      -0.801697      
  1.0352e+011     -0.139828       -0.766145       0.378961        -0.121558       0.374877        -0.134035       -0.0837211      -0.808808      
  1.046e+011      -0.143511       -0.766261       0.383854        -0.118725       0.380074        -0.129449       -0.0761287      -0.806743      
  1.0568e+011     -0.164239       -0.758349       0.391511        -0.126023       0.388633        -0.132721       -0.104541       -0.803015      
  1.0676e+011     -0.169771       -0.767042       0.393137        -0.139507       0.391355        -0.142297       -0.111974       -0.813314      
  1.0784e+011     -0.180797       -0.766032       0.390541        -0.147732       0.389861        -0.148495       -0.133253       -0.78519       
  1.0892e+011     -0.190967       -0.770038       0.385287        -0.156951       0.385662        -0.154867       -0.146994       -0.779147      
  1.1e+011        -0.217148       -0.772267       0.379292        -0.160594       0.380054        -0.157489       -0.145996       -0.779535      
END_DB

