! VERSION = 6.00
BEGIN_HEADER
 ICCAP_INPUTS
  Vds        V  D GROUND SMU1 0 CON        4.5
  freq       F  LIN        1    2e+009     1.1e+011   101  1.08e+009 
  Vgs        V  G GROUND SMU2 0 CON        0.4
 ICCAP_OUTPUTS
  S_deemb    S  P1 P2 GROUND NWA B
END_HEADER

BEGIN_DB
 ICCAP_VAR Vds        4.5            
 ICCAP_VAR Vgs        0.4            

 #freq            R:S_deemb(1,1)  I:S_deemb(1,1)  R:S_deemb(1,2)  I:S_deemb(1,2)  R:S_deemb(2,1)  I:S_deemb(2,1)  R:S_deemb(2,2)  I:S_deemb(2,2) 
  2e+009          0.995803        -0.0867377      -0.000355416    0.00752253      -1.87447        0.151388        0.913175        -0.0366723     
  3.08e+009       0.989873        -0.135415       0.000115911     0.0127743       -1.85903        0.230951        0.911508        -0.0563311     
  4.16e+009       0.981543        -0.182571       0.000586075     0.0172941       -1.84393        0.309025        0.910183        -0.0751546     
  5.24e+009       0.969503        -0.230538       0.00190554      0.022945        -1.8317         0.390456        0.907067        -0.095557      
  6.32e+009       0.955033        -0.275355       0.00350334      0.0272546       -1.81297        0.466175        0.903216        -0.113828      
  7.4e+009        0.939717        -0.319436       0.00464683      0.0314354       -1.78686        0.540707        0.900573        -0.132541      
  8.48e+009       0.92085         -0.362594       0.00663693      0.0357094       -1.75641        0.614427        0.896098        -0.151468      
  9.56e+009       0.900131        -0.404437       0.00860572      0.0398193       -1.72265        0.686822        0.891435        -0.170595      
  1.064e+010      0.877646        -0.445077       0.0106987       0.044008        -1.68471        0.755817        0.886909        -0.189283      
  1.172e+010      0.853221        -0.483433       0.0129204       0.0478144       -1.64415        0.821628        0.881695        -0.206821      
  1.28e+010       0.826662        -0.521826       0.0152858       0.0521542       -1.60029        0.887136        0.876333        -0.225457      
  1.388e+010      0.797186        -0.557937       0.0187162       0.056524        -1.55005        0.950419        0.868762        -0.244171      
  1.496e+010      0.765825        -0.590578       0.0224726       0.0599709       -1.49661        1.00662         0.859769        -0.262366      
  1.604e+010      0.735397        -0.621044       0.0256633       0.06279         -1.44508        1.05914         0.852733        -0.279712      
  1.712e+010      0.703194        -0.65039        0.0289919       0.0660505       -1.39034        1.10948         0.844847        -0.2968        
  1.82e+010       0.668551        -0.677381       0.0328235       0.0689737       -1.33282        1.15912         0.835855        -0.313418      
  1.928e+010      0.632063        -0.701391       0.0376584       0.0717361       -1.27014        1.20107         0.824977        -0.329289      
  2.036e+010      0.596177        -0.722711       0.0417594       0.073201        -1.20887        1.23887         0.815153        -0.343785      
  2.144e+010      0.559639        -0.743878       0.0461029       0.0753418       -1.14685        1.27582         0.804318        -0.360823      
  2.252e+010      0.523575        -0.761479       0.0501252       0.0770307       -1.08485        1.30587         0.794083        -0.374968      
  2.36e+010       0.486333        -0.776232       0.0548281       0.0781617       -1.02127        1.3329          0.781745        -0.388451      
  2.468e+010      0.44972         -0.787492       0.0594991       0.0784874       -0.95735        1.35413         0.770282        -0.401158      
  2.576e+010      0.414867        -0.797919       0.0635651       0.0790804       -0.896622       1.3729          0.759368        -0.414692      
  2.684e+010      0.378784        -0.807469       0.067867        0.0792529       -0.834773       1.38788         0.747832        -0.42756       
  2.792e+010      0.344632        -0.813414       0.0719636       0.0786439       -0.773785       1.39833         0.736181        -0.438654      
  2.9e+010        0.308765        -0.815711       0.0761233       0.0775133       -0.710849       1.40592         0.722928        -0.448002      
  3.008e+010      0.278722        -0.818893       0.0787605       0.0767413       -0.657809       1.40979         0.712816        -0.456182      
  3.116e+010      0.245962        -0.820249       0.0834252       0.0758694       -0.59799        1.41467         0.700435        -0.468197      
  3.224e+010      0.213316        -0.821474       0.0860914       0.0740788       -0.545026       1.41488         0.689659        -0.478736      
  3.332e+010      0.183568        -0.819371       0.088121        0.0723322       -0.491643       1.4128          0.679705        -0.48748       
  3.44e+010       0.151258        -0.817523       0.0903958       0.0720523       -0.437114       1.4089          0.665669        -0.495391      
  3.548e+010      0.123536        -0.815168       0.0944428       0.0703003       -0.387233       1.40303         0.655131        -0.504246      
  3.656e+010      0.0974927       -0.813345       0.0960019       0.0695796       -0.342593       1.398           0.646875        -0.513041      
  3.764e+010      0.0710527       -0.809855       0.098086        0.0676542       -0.29557        1.39107         0.634596        -0.523985      
  3.872e+010      0.0451645       -0.806992       0.0995305       0.0672562       -0.251888       1.38332         0.623622        -0.533635      
  3.98e+010       0.0190871       -0.799292       0.101998        0.0662288       -0.209151       1.36959         0.613           -0.536379      
  4.088e+010      -0.00668388     -0.791883       0.103956        0.0642052       -0.16442        1.35636         0.601549        -0.543325      
  4.196e+010      -0.0290024      -0.783473       0.106322        0.063069        -0.120794       1.34444         0.591528        -0.555347      
  4.304e+010      -0.0534517      -0.780421       0.108148        0.0617491       -0.0836234      1.33458         0.578275        -0.561435      
  4.412e+010      -0.0813372      -0.771327       0.111638        0.0598803       -0.0397989      1.32194         0.563703        -0.569991      
  4.52e+010       -0.100209       -0.760392       0.112545        0.057407        -0.00643519     1.29969         0.556656        -0.57157       
  4.628e+010      -0.119979       -0.748544       0.114039        0.054729        0.0290692       1.28034         0.544804        -0.574262      
  4.736e+010      -0.140121       -0.74004        0.115229        0.0509268       0.0604031       1.26219         0.535381        -0.582632      
  4.844e+010      -0.158058       -0.729872       0.114703        0.0500116       0.0920881       1.24506         0.525751        -0.586578      
  4.952e+010      -0.182768       -0.71571        0.116321        0.0473992       0.127981        1.22375         0.508955        -0.591954      
  5.06e+010       -0.197487       -0.702888       0.11764         0.0461192       0.152085        1.21091         0.506628        -0.598325      
  5.168e+010      -0.203453       -0.675515       0.114132        0.044089        0.174847        1.17408         0.505014        -0.591196      
  5.276e+010      -0.209473       -0.711312       0.117341        0.045042        0.190782        1.18969         0.491387        -0.622807      
  5.384e+010      -0.2356         -0.694538       0.118171        0.0425216       0.223196        1.16586         0.482773        -0.619715      
  5.492e+010      -0.25694        -0.677759       0.117403        0.0405937       0.255504        1.14476         0.464025        -0.622947      
  5.6e+010        -0.274744       -0.672075       0.118343        0.040918        0.2808          1.13322         0.458208        -0.636204      
  5.708e+010      -0.291222       -0.657026       0.120094        0.0390831       0.310408        1.11044         0.443918        -0.636542      
  5.816e+010      -0.30787        -0.641035       0.121258        0.0358939       0.335617        1.08422         0.430428        -0.642787      
  5.924e+010      -0.318688       -0.630302       0.119286        0.0348605       0.352176        1.06403         0.426806        -0.640486      
  6.032e+010      -0.330517       -0.613728       0.121125        0.0320084       0.375286        1.03987         0.410963        -0.643029      
  6.14e+010       -0.347384       -0.605079       0.120977        0.0301906       0.397774        1.02468         0.404038        -0.655491      
  6.248e+010      -0.350677       -0.587222       0.119642        0.025228        0.40894         0.996283        0.395886        -0.649976      
  6.356e+010      -0.362295       -0.573681       0.118731        0.0229732       0.42811         0.977072        0.376862        -0.661823      
  6.464e+010      -0.36229        -0.570208       0.11529         0.0243493       0.43204         0.962188        0.383928        -0.660728      
  6.572e+010      -0.367796       -0.560831       0.110711        0.0249835       0.447017        0.944583        0.367203        -0.663138      
  6.68e+010       -0.379601       -0.562914       0.111933        0.0272952       0.466851        0.935419        0.362054        -0.679669      
  6.788e+010      -0.395669       -0.553052       0.112303        0.0283148       0.494949        0.914414        0.344172        -0.684053      
  6.896e+010      -0.429177       -0.542891       0.116555        0.0283639       0.51867         0.898282        0.336051        -0.676784      
  7.004e+010      -0.437885       -0.526198       0.118886        0.0264143       0.537551        0.868798        0.3128          -0.691646      
  7.112e+010      -0.450629       -0.514416       0.119887        0.0235491       0.551391        0.842378        0.298156        -0.690705      
  7.22e+010       -0.453482       -0.497775       0.121294        0.0217875       0.566537        0.818807        0.289757        -0.70195       
  7.328e+010      -0.466235       -0.479858       0.120053        0.0196658       0.574457        0.798141        0.28583         -0.69665       
  7.436e+010      -0.47348        -0.464706       0.120893        0.0172174       0.585935        0.771397        0.272414        -0.695831      
  7.544e+010      -0.48232        -0.448205       0.122034        0.0138933       0.59546         0.747571        0.256612        -0.691083      
  7.652e+010      -0.490074       -0.44161        0.120805        0.0104774       0.603295        0.723813        0.238819        -0.691358      
  7.76e+010       -0.491436       -0.43187        0.117648        0.00882365      0.608374        0.703682        0.226102        -0.695408      
  7.868e+010      -0.499519       -0.413435       0.117276        0.00676862      0.61557         0.681809        0.226373        -0.703747      
  7.976e+010      -0.504986       -0.399609       0.115336        0.00330688      0.618478        0.656293        0.220667        -0.695586      
  8.084e+010      -0.504604       -0.386561       0.109917        0.00107007      0.611787        0.642788        0.215519        -0.689415      
  8.192e+010      -0.508916       -0.385356       0.105624        0.00533093      0.616529        0.641266        0.217049        -0.695981      
  8.3e+010        -0.51512        -0.379919       0.104568        0.0047509       0.622684        0.622715        0.203009        -0.695284      
  8.408e+010      -0.52018        -0.367637       0.102932        0.00479856      0.628883        0.604113        0.191274        -0.699705      
  8.516e+010      -0.527762       -0.350102       0.101481        0.00466051      0.635594        0.587909        0.190233        -0.710891      
  8.624e+010      -0.532502       -0.34178        0.0981428       0.00806214      0.638043        0.577143        0.187606        -0.70777       
  8.732e+010      -0.540756       -0.33244        0.0983914       0.0114427       0.649579        0.565395        0.17971         -0.720978      
  8.84e+010       -0.549474       -0.327191       0.0995783       0.0139719       0.661204        0.551583        0.168202        -0.721655      
  8.948e+010      -0.564532       -0.314179       0.106717        0.0148289       0.678832        0.522822        0.14153         -0.723609      
  9.056e+010      -0.559031       -0.29016        0.10574         0.00807778      0.674988        0.500005        0.128769        -0.715767      
  9.164e+010      -0.567708       -0.273836       0.10472         0.00632553      0.674723        0.481547        0.125191        -0.724188      
  9.272e+010      -0.561727       -0.264412       0.0988642       0.00520569      0.66756         0.468344        0.125627        -0.715711      
  9.38e+010       -0.573965       -0.250877       0.0989978       0.00523258      0.672838        0.453174        0.120023        -0.732906      
  9.488e+010      -0.571989       -0.251358       0.0934168       0.00732874      0.672149        0.451287        0.133382        -0.730236      
  9.596e+010      -0.571584       -0.236207       0.0924152       0.00995513      0.678069        0.439025        0.11256         -0.737428      
  9.704e+010      -0.573103       -0.216811       0.0931195       0.0111311       0.683771        0.418392        0.0922897       -0.749932      
  9.812e+010      -0.582725       -0.219618       0.0926925       0.0150019       0.693395        0.40627         0.08648         -0.757911      
  9.92e+010       -0.587466       -0.193096       0.0929741       0.0181857       0.69473         0.385286        0.0801058       -0.752224      
  1.0028e+011     -0.591888       -0.186673       0.0962735       0.0189675       0.706918        0.364137        0.0741037       -0.771668      
  1.0136e+011     -0.592558       -0.176032       0.0927171       0.0208889       0.71154         0.349969        0.0614163       -0.773952      
  1.0244e+011     -0.590496       -0.167128       0.0938099       0.0213572       0.712582        0.331616        0.0454959       -0.766504      
  1.0352e+011     -0.597554       -0.153419       0.0914005       0.0273592       0.717975        0.321523        0.0211649       -0.783253      
  1.046e+011      -0.5953         -0.142047       0.0971782       0.0293079       0.722815        0.307866        0.0217803       -0.788239      
  1.0568e+011     -0.60152        -0.121901       0.102074        0.0291946       0.729934        0.288104        -0.0113489      -0.791188      
  1.0676e+011     -0.601833       -0.118973       0.102886        0.0259246       0.72597         0.268097        -0.022337       -0.800203      
  1.0784e+011     -0.602404       -0.106402       0.104062        0.0278106       0.71883         0.250751        -0.0458834      -0.774492      
  1.0892e+011     -0.601633       -0.0964058      0.104804        0.0276099       0.714037        0.243086        -0.0576753      -0.767652      
  1.1e+011        -0.610252       -0.0836661      0.10641         0.0288489       0.715648        0.235219        -0.0529068      -0.772487      
END_DB

