! VERSION = 6.00
BEGIN_HEADER
 ICCAP_INPUTS
  Vds        V  D GROUND SMU1 0 CON        4.5
  freq       F  LIN        1    2e+009     1.1e+011   101  1.08e+009 
  Vgs        V  G GROUND SMU2 0 CON        -0.2
 ICCAP_OUTPUTS
  S_deemb    S  P1 P2 GROUND NWA B
END_HEADER

BEGIN_DB
 ICCAP_VAR Vds        4.5            
 ICCAP_VAR Vgs        -0.2           

 #freq            R:S_deemb(1,1)  I:S_deemb(1,1)  R:S_deemb(1,2)  I:S_deemb(1,2)  R:S_deemb(2,1)  I:S_deemb(2,1)  R:S_deemb(2,2)  I:S_deemb(2,2) 
  2e+009          0.989697        -0.0965168      0.00309584      0.00860484      -3.09212        0.264471        0.854194        -0.0324363     
  3.08e+009       0.98214         -0.151361       0.00365279      0.0143806       -3.07055        0.406662        0.853826        -0.0583348     
  4.16e+009       0.971589        -0.204029       0.00435064      0.0194583       -3.04503        0.546291        0.852457        -0.0816929     
  5.24e+009       0.956214        -0.257709       0.00596404      0.0255609       -3.00607        0.686794        0.848123        -0.106582      
  6.32e+009       0.93811         -0.306845       0.00788668      0.030335        -2.95892        0.815092        0.842898        -0.128151      
  7.4e+009        0.918677        -0.355702       0.00945927      0.0350103       -2.91175        0.946984        0.838572        -0.15007       
  8.48e+009       0.895176        -0.4025         0.0119355       0.0396516       -2.85026        1.07217         0.831619        -0.172198      
  9.56e+009       0.869428        -0.447664       0.0144968       0.0440874       -2.78678        1.19515         0.824613        -0.193763      
  1.064e+010      0.841382        -0.491403       0.0171468       0.0485353       -2.71419        1.31247         0.817124        -0.214931      
  1.172e+010      0.81126         -0.531688       0.0200226       0.0525551       -2.63623        1.42268         0.809047        -0.234826      
  1.28e+010       0.778335        -0.572161       0.0230852       0.0569452       -2.55122        1.53217         0.799951        -0.255571      
  1.388e+010      0.742196        -0.608708       0.0272296       0.0612723       -2.45323        1.63164         0.787765        -0.276493      
  1.496e+010      0.704223        -0.641269       0.0315657       0.0646049       -2.35421        1.72115         0.774742        -0.295062      
  1.604e+010      0.667731        -0.671079       0.0354305       0.0672761       -2.25807        1.80234         0.763683        -0.312534      
  1.712e+010      0.62811         -0.699653       0.0394518       0.0702863       -2.15375        1.88306         0.751675        -0.33057       
  1.82e+010       0.587471        -0.724132       0.043863        0.0728142       -2.04823        1.95403         0.738309        -0.346777      
  1.928e+010      0.544899        -0.744827       0.0492369       0.0750873       -1.93408        2.01058         0.721965        -0.362088      
  2.036e+010      0.503057        -0.762941       0.0537854       0.0761289       -1.82499        2.06564         0.708346        -0.375362      
  2.144e+010      0.461451        -0.77953        0.0585928       0.0776119       -1.71354        2.1104          0.692334        -0.390457      
  2.252e+010      0.419438        -0.79255        0.0628681       0.078656        -1.60112        2.14869         0.678054        -0.402358      
  2.36e+010       0.378296        -0.802134       0.0677162       0.0791819       -1.4942         2.17902         0.662158        -0.413066      
  2.468e+010      0.337191        -0.807649       0.0725194       0.0788403       -1.38261        2.20086         0.646428        -0.423043      
  2.576e+010      0.3007          -0.811828       0.0766351       0.0788643       -1.28015        2.21486         0.63176         -0.434022      
  2.684e+010      0.262061        -0.815804       0.0809412       0.0784289       -1.17896        2.22437         0.617512        -0.442122      
  2.792e+010      0.226383        -0.814872       0.0848437       0.0773668       -1.07749        2.22701         0.602996        -0.450176      
  2.9e+010        0.189167        -0.810402       0.0886381       0.0757262       -0.976065       2.22303         0.587156        -0.455692      
  3.008e+010      0.159616        -0.807602       0.0910486       0.0745733       -0.891167       2.21566         0.575259        -0.460048      
  3.116e+010      0.126481        -0.803266       0.0954154       0.0730796       -0.797316       2.20893         0.559719        -0.467968      
  3.224e+010      0.0948682       -0.79842        0.0977626       0.0710145       -0.713986       2.19508         0.547573        -0.473087      
  3.332e+010      0.0678666       -0.790651       0.0994699       0.0694059       -0.634511       2.17648         0.53678         -0.477923      
  3.44e+010       0.0371632       -0.784323       0.101728        0.0690124       -0.555519       2.15776         0.524117        -0.483506      
  3.548e+010      0.0111974       -0.777544       0.105306        0.0667372       -0.482459       2.13729         0.510835        -0.487297      
  3.656e+010      -0.0127105      -0.771491       0.106899        0.0657066       -0.417053       2.1188          0.501324        -0.491797      
  3.764e+010      -0.0362543      -0.764521       0.108456        0.0640259       -0.351427       2.09792         0.489207        -0.497604      
  3.872e+010      -0.0595994      -0.759287       0.110269        0.0636037       -0.291386       2.07755         0.477728        -0.503035      
  3.98e+010       -0.0838224      -0.74745        0.112284        0.0624874       -0.228534       2.05074         0.467354        -0.504856      
  4.088e+010      -0.10637        -0.737211       0.114049        0.0601933       -0.16583        2.02327         0.456372        -0.50953       
  4.196e+010      -0.126323       -0.725868       0.116251        0.05876         -0.107258       1.99741         0.445702        -0.514574      
  4.304e+010      -0.148407       -0.720536       0.11779         0.0571453       -0.0554181      1.97525         0.434205        -0.516722      
  4.412e+010      -0.173823       -0.708007       0.120845        0.0553366       0.00563678      1.94931         0.421568        -0.520579      
  4.52e+010       -0.189785       -0.695253       0.121906        0.0529098       0.0503198       1.91263         0.412878        -0.519671      
  4.628e+010      -0.20651        -0.681457       0.123029        0.0503878       0.0964279       1.8783          0.401996        -0.519973      
  4.736e+010      -0.223762       -0.669518       0.123568        0.0462792       0.139826        1.84762         0.39313         -0.521113      
  4.844e+010      -0.238034       -0.659796       0.123256        0.0460798       0.179201        1.81885         0.385326        -0.523553      
  4.952e+010      -0.259279       -0.643679       0.124196        0.0433639       0.226991        1.7837          0.373744        -0.524997      
  5.06e+010       -0.272754       -0.628831       0.126006        0.0422528       0.258677        1.76451         0.369998        -0.528525      
  5.168e+010      -0.272427       -0.601933       0.122419        0.0406773       0.289365        1.71097         0.369845        -0.523134      
  5.276e+010      -0.281449       -0.637977       0.125976        0.0410718       0.3147          1.72399         0.354117        -0.545657      
  5.384e+010      -0.305306       -0.619435       0.126257        0.0381497       0.358029        1.68588         0.344988        -0.541218      
  5.492e+010      -0.321439       -0.601783       0.125874        0.0367208       0.397497        1.65434         0.334312        -0.542131      
  5.6e+010        -0.339838       -0.594295       0.127083        0.0363767       0.433148        1.63205         0.327486        -0.547669      
  5.708e+010      -0.352522       -0.579758       0.128119        0.0355913       0.469052        1.59847         0.316002        -0.548277      
  5.816e+010      -0.365671       -0.559974       0.12933         0.032055        0.500362        1.56007         0.305344        -0.549127      
  5.924e+010      -0.374351       -0.553357       0.128145        0.0311839       0.521324        1.53295         0.301195        -0.550649      
  6.032e+010      -0.383125       -0.53576        0.128557        0.0286274       0.550913        1.4954          0.289947        -0.549196      
  6.14e+010       -0.398379       -0.524536       0.128841        0.0266357       0.581252        1.47211         0.283682        -0.553091      
  6.248e+010      -0.396912       -0.507453       0.12789         0.0222576       0.593026        1.43394         0.27827         -0.547069      
  6.356e+010      -0.406645       -0.492865       0.126549        0.0209902       0.617083        1.40484         0.266271        -0.552503      
  6.464e+010      -0.406658       -0.494715       0.124015        0.0218105       0.62745         1.38535         0.264897        -0.555831      
  6.572e+010      -0.408263       -0.487289       0.120329        0.0220221       0.647154        1.36161         0.256284        -0.561566      
  6.68e+010       -0.422892       -0.488187       0.121056        0.0237849       0.670783        1.3441          0.252334        -0.566172      
  6.788e+010      -0.431898       -0.482128       0.12194         0.0243054       0.694953        1.32444         0.242164        -0.569796      
  6.896e+010      -0.464023       -0.47011        0.125727        0.0243904       0.724891        1.2995          0.235388        -0.559986      
  7.004e+010      -0.470021       -0.453112       0.127196        0.0226891       0.747711        1.25969         0.217062        -0.571258      
  7.112e+010      -0.481135       -0.441185       0.128339        0.0203607       0.76512         1.22434         0.206413        -0.569441      
  7.22e+010       -0.48154        -0.424823       0.129062        0.0183184       0.783132        1.19399         0.200954        -0.578716      
  7.328e+010      -0.492912       -0.407057       0.128387        0.016501        0.794935        1.16474         0.199244        -0.571775      
  7.436e+010      -0.497379       -0.39326        0.12906         0.0143762       0.808578        1.13194         0.189459        -0.568893      
  7.544e+010      -0.504862       -0.376238       0.129784        0.011368        0.82139         1.09739         0.177069        -0.562204      
  7.652e+010      -0.510078       -0.370339       0.128934        0.00822587      0.831792        1.06703         0.163376        -0.561756      
  7.76e+010       -0.509525       -0.362114       0.126248        0.00687783      0.8382          1.04215         0.154869        -0.564863      
  7.868e+010      -0.515436       -0.345454       0.12602         0.00503577      0.845888        1.01565         0.15808         -0.572168      
  7.976e+010      -0.517994       -0.334336       0.124526        0.00192994      0.846837        0.986659        0.155982        -0.562894      
  8.084e+010      -0.517376       -0.321727       0.119814        0.000421129     0.842202        0.969291        0.155283        -0.557815      
  8.192e+010      -0.521973       -0.322294       0.116602        0.00395441      0.853814        0.967991        0.157866        -0.564248      
  8.3e+010        -0.527508       -0.315994       0.115776        0.00335132      0.863569        0.942354        0.147462        -0.563914      
  8.408e+010      -0.530687       -0.306391       0.114774        0.00310588      0.872549        0.923748        0.138365        -0.569113      
  8.516e+010      -0.537052       -0.290385       0.113415        0.00283662      0.884369        0.902216        0.140561        -0.578113      
  8.624e+010      -0.541825       -0.282967       0.110974        0.00547925      0.892146        0.88827         0.139982        -0.576127      
  8.732e+010      -0.550646       -0.274381       0.111206        0.00815167      0.91289         0.870116        0.134689        -0.588894      
  8.84e+010       -0.559711       -0.268313       0.112319        0.0101279       0.930805        0.849831        0.124889        -0.589303      
  8.948e+010      -0.573468       -0.253588       0.118152        0.0103725       0.952902        0.809218        0.102002        -0.589864      
  9.056e+010      -0.566234       -0.229226       0.117571        0.00476716      0.950473        0.776214        0.0937428       -0.583007      
  9.164e+010      -0.573131       -0.214188       0.116793        0.00334852      0.952734        0.753509        0.0938484       -0.591027      
  9.272e+010      -0.566115       -0.207672       0.111828        0.00188464      0.948419        0.740139        0.0970818       -0.58499       
  9.38e+010       -0.57743        -0.19498        0.112207        0.00178384      0.958981        0.720229        0.0942173       -0.602258      
  9.488e+010      -0.575333       -0.19626        0.107678        0.00316932      0.964504        0.718663        0.10824         -0.600988      
  9.596e+010      -0.575778       -0.181023       0.106858        0.00531168      0.977805        0.696513        0.0894615       -0.608213      
  9.704e+010      -0.576918       -0.162961       0.107575        0.00627026      0.989924        0.666964        0.0736201       -0.621385      
  9.812e+010      -0.586896       -0.165166       0.107278        0.00933322      1.00938         0.646505        0.0708157       -0.631468      
  9.92e+010       -0.591097       -0.140361       0.107581        0.0117722       1.01484         0.617039        0.0645454       -0.62757       
  1.0028e+011     -0.594845       -0.134045       0.110483        0.0122916       1.03395         0.585707        0.0604638       -0.645317      
  1.0136e+011     -0.595614       -0.124303       0.107363        0.0137882       1.04587         0.565006        0.050449        -0.647748      
  1.0244e+011     -0.593362       -0.115267       0.108393        0.0140098       1.05163         0.537778        0.0388848       -0.642468      
  1.0352e+011     -0.601195       -0.10153        0.10625         0.0189152       1.06631         0.514212        0.0159196       -0.662264      
  1.046e+011      -0.598693       -0.0897295      0.111248        0.0201948       1.07281         0.490425        0.016477        -0.668265      
  1.0568e+011     -0.603961       -0.068301       0.115061        0.0196766       1.08006         0.456148        -0.0143039      -0.668354      
  1.0676e+011     -0.60308        -0.0667481      0.115652        0.0165974       1.07751         0.432877        -0.0198365      -0.67789       
  1.0784e+011     -0.603564       -0.0540894      0.116373        0.0184622       1.06975         0.406807        -0.0390843      -0.654806      
  1.0892e+011     -0.602544       -0.0426091      0.117214        0.0185618       1.06459         0.390823        -0.0478835      -0.653259      
  1.1e+011        -0.609643       -0.0297636      0.119183        0.0195557       1.07097         0.375154        -0.0441224      -0.6624        
END_DB

