! VERSION = 6.00
BEGIN_HEADER
 ICCAP_INPUTS
  Vds        V  D GROUND SMU1 0 CON        4.5
  freq       F  LIN        1    2e+009     1.1e+011   101  1.08e+009 
  Vgs        V  G GROUND SMU2 0 CON        -0.7
 ICCAP_OUTPUTS
  S_deemb    S  P1 P2 GROUND NWA B
END_HEADER

BEGIN_DB
 ICCAP_VAR Vds        4.5            
 ICCAP_VAR Vgs        -0.7           

 #freq            R:S_deemb(1,1)  I:S_deemb(1,1)  R:S_deemb(1,2)  I:S_deemb(1,2)  R:S_deemb(2,1)  I:S_deemb(2,1)  R:S_deemb(2,2)  I:S_deemb(2,2) 
  2e+009          0.995341        -0.0959275      0.00180515      0.0107728       -2.53344        0.23129         0.846148        -0.0406371     
  3.08e+009       0.987606        -0.149746       0.00269471      0.0176792       -2.51653        0.351463        0.843731        -0.0661661     
  4.16e+009       0.97689         -0.201784       0.00377513      0.0238096       -2.49801        0.471507        0.840972        -0.089755      
  5.24e+009       0.961682        -0.254315       0.00584791      0.030893        -2.46421        0.590307        0.83546         -0.114591      
  6.32e+009       0.94367         -0.302444       0.00831081      0.0366278       -2.41945        0.699289        0.829016        -0.136582      
  7.4e+009        0.923911        -0.350856       0.0104542       0.0422049       -2.38456        0.81264         0.823422        -0.158583      
  8.48e+009       0.900563        -0.396416       0.0135748       0.0476643       -2.32714        0.917631        0.81534         -0.180715      
  9.56e+009       0.874883        -0.440676       0.0167963       0.0528589       -2.27164        1.02127         0.806998        -0.202368      
  1.064e+010      0.847082        -0.483371       0.0201961       0.0579609       -2.20917        1.11858         0.798159        -0.223284      
  1.172e+010      0.817326        -0.522643       0.0238223       0.0626143       -2.14058        1.21026         0.788994        -0.242943      
  1.28e+010       0.784668        -0.561978       0.0276734       0.067559        -2.06877        1.3016          0.77867         -0.263084      
  1.388e+010      0.749686        -0.596916       0.032642        0.0723561       -1.98179        1.38193         0.765982        -0.283244      
  1.496e+010      0.712367        -0.628722       0.037776        0.0760497       -1.89822        1.45632         0.751852        -0.301083      
  1.604e+010      0.676781        -0.6576         0.0424309       0.0790472       -1.81567        1.52243         0.739836        -0.318144      
  1.712e+010      0.637755        -0.685454       0.0472387       0.0823913       -1.72939        1.59038         0.727066        -0.334914      
  1.82e+010       0.59835         -0.709338       0.0524883       0.0851402       -1.63925        1.64711         0.712868        -0.350258      
  1.928e+010      0.557507        -0.729181       0.0587014       0.0876303       -1.5418         1.69131         0.696848        -0.364731      
  2.036e+010      0.516579        -0.746851       0.0639533       0.0887486       -1.44991        1.7359          0.682551        -0.376951      
  2.144e+010      0.477076        -0.762957       0.0696205       0.0903341       -1.35513        1.76916         0.666745        -0.39156       
  2.252e+010      0.435882        -0.776091       0.0745879       0.0914238       -1.26398        1.80189         0.652231        -0.402255      
  2.36e+010       0.39571         -0.785909       0.0801941       0.0919911       -1.17399        1.82661         0.636063        -0.412341      
  2.468e+010      0.355876        -0.791653       0.0856805       0.0916878       -1.08257        1.84404         0.620781        -0.42155       
  2.576e+010      0.321114        -0.796052       0.0905591       0.0915988       -0.995501       1.85195         0.60611         -0.431834      
  2.684e+010      0.283424        -0.800432       0.095537        0.0911244       -0.911988       1.85952         0.591877        -0.439958      
  2.792e+010      0.248876        -0.800443       0.100121        0.0899417       -0.82784        1.86061         0.577381        -0.447067      
  2.9e+010        0.212371        -0.797007       0.104521        0.0880671       -0.744579       1.85839         0.56199         -0.451885      
  3.008e+010      0.183434        -0.794845       0.107627        0.0869694       -0.673429       1.85143         0.550103        -0.456112      
  3.116e+010      0.150583        -0.791155       0.112711        0.0853024       -0.595197       1.84617         0.534913        -0.463233      
  3.224e+010      0.120117        -0.7871         0.115594        0.0831716       -0.52577        1.83345         0.522864        -0.468919      
  3.332e+010      0.0931085       -0.780399       0.117982        0.0812775       -0.458513       1.81767         0.512051        -0.47325       
  3.44e+010       0.06288         -0.774179       0.120832        0.0804419       -0.391439       1.80159         0.498665        -0.477437      
  3.548e+010      0.0367546       -0.768027       0.124847        0.0780824       -0.329796       1.78432         0.486147        -0.48134       
  3.656e+010      0.0133065       -0.762453       0.127082        0.0769816       -0.274563       1.76765         0.476879        -0.485952      
  3.764e+010      -0.0105975      -0.755998       0.129327        0.0745476       -0.218692       1.7498          0.464677        -0.491843      
  3.872e+010      -0.0333154      -0.750586       0.131577        0.0740251       -0.166827       1.73043         0.453102        -0.497152      
  3.98e+010       -0.057039       -0.739758       0.134064        0.0724088       -0.114976       1.70731         0.443034        -0.49765       
  4.088e+010      -0.0794916      -0.729621       0.136282        0.0701166       -0.0627429      1.68257         0.431576        -0.500367      
  4.196e+010      -0.0991873      -0.719045       0.138722        0.0684277       -0.0131798      1.65973         0.421129        -0.507142      
  4.304e+010      -0.121091       -0.71358        0.140967        0.0665629       0.0306516       1.63898         0.409539        -0.508886      
  4.412e+010      -0.146014       -0.701565       0.144444        0.0640904       0.0822066       1.61616         0.396132        -0.512115      
  4.52e+010       -0.161724       -0.689451       0.145578        0.0612949       0.118995        1.5848          0.389147        -0.510865      
  4.628e+010      -0.178387       -0.676094       0.147313        0.058698        0.157725        1.55495         0.378393        -0.510635      
  4.736e+010      -0.195217       -0.665519       0.14807         0.0544097       0.192611        1.52864         0.37011         -0.513038      
  4.844e+010      -0.209547       -0.655141       0.148532        0.0535767       0.226278        1.50246         0.361835        -0.514634      
  4.952e+010      -0.231074       -0.639551       0.149964        0.0502544       0.265498        1.47213         0.348887        -0.515467      
  5.06e+010       -0.243754       -0.625325       0.151875        0.0488252       0.292953        1.45444         0.346006        -0.520094      
  5.168e+010      -0.243984       -0.599318       0.148587        0.0470004       0.31608         1.40962         0.346312        -0.513537      
  5.276e+010      -0.252972       -0.63426        0.152821        0.0474327       0.34094         1.4186          0.32884         -0.535658      
  5.384e+010      -0.275994       -0.616157       0.153617        0.0442147       0.374912        1.38555         0.321616        -0.531055      
  5.492e+010      -0.292814       -0.59897        0.153179        0.0418024       0.407118        1.35755         0.308652        -0.530272      
  5.6e+010        -0.309341       -0.592144       0.154485        0.0406504       0.436802        1.33828         0.303517        -0.53731       
  5.708e+010      -0.322522       -0.577163       0.156305        0.0394952       0.465955        1.3076          0.29169         -0.535893      
  5.816e+010      -0.335212       -0.559448       0.157554        0.0358912       0.49115         1.27458         0.280757        -0.5383        
  5.924e+010      -0.342983       -0.550663       0.156599        0.0350273       0.508793        1.25008         0.278672        -0.537536      
  6.032e+010      -0.352926       -0.534613       0.157304        0.0316895       0.532761        1.21792         0.265523        -0.536         
  6.14e+010       -0.3671         -0.523665       0.157862        0.0295188       0.557432        1.19655         0.260139        -0.541418      
  6.248e+010      -0.367803       -0.508688       0.156777        0.0242185       0.566705        1.16394         0.253982        -0.536033      
  6.356e+010      -0.376468       -0.494233       0.156247        0.0221444       0.586102        1.13813         0.240165        -0.541912      
  6.464e+010      -0.376208       -0.493908       0.153756        0.0233259       0.592457        1.12161         0.242723        -0.54381       
  6.572e+010      -0.379375       -0.485251       0.150524        0.0239838       0.608257        1.09994         0.232714        -0.544606      
  6.68e+010       -0.391166       -0.486005       0.152322        0.0247367       0.628977        1.08332         0.227577        -0.553343      
  6.788e+010      -0.395647       -0.485862       0.153086        0.0239423       0.646104        1.05458         0.215911        -0.555381      
  6.896e+010      -0.426435       -0.474368       0.156939        0.0237885       0.671075        1.03315         0.209171        -0.544938      
  7.004e+010      -0.431436       -0.458959       0.159191        0.0206726       0.687943        0.998311        0.190669        -0.556405      
  7.112e+010      -0.442026       -0.448157       0.15958         0.0180625       0.700966        0.968207        0.180534        -0.553736      
  7.22e+010       -0.443589       -0.432493       0.16088         0.0153485       0.715598        0.942861        0.175457        -0.563554      
  7.328e+010      -0.455151       -0.414871       0.16031         0.0136999       0.72501         0.918458        0.174223        -0.555836      
  7.436e+010      -0.458148       -0.404073       0.160855        0.0106879       0.733676        0.88832         0.164295        -0.552672      
  7.544e+010      -0.466902       -0.386474       0.162157        0.0074028       0.744457        0.861323        0.152809        -0.546146      
  7.652e+010      -0.471448       -0.38294        0.161425        0.00385329      0.75082         0.833625        0.138371        -0.545917      
  7.76e+010       -0.470493       -0.376593       0.159005        0.0016431       0.753622        0.81034         0.129035        -0.549088      
  7.868e+010      -0.476759       -0.362073       0.158735        -0.000842093    0.758408        0.786892        0.132133        -0.556707      
  7.976e+010      -0.479533       -0.352273       0.157026        -0.00439604     0.758569        0.761392        0.129651        -0.547143      
  8.084e+010      -0.481001       -0.336012       0.152466        -0.00637736     0.756154        0.748318        0.127846        -0.54246       
  8.192e+010      -0.485432       -0.335636       0.150103        -0.00309748     0.764833        0.746894        0.129448        -0.547254      
  8.3e+010        -0.491429       -0.32833        0.149216        -0.00416572     0.773229        0.726048        0.118685        -0.546576      
  8.408e+010      -0.492416       -0.322271       0.148517        -0.00507231     0.778461        0.706315        0.108652        -0.551466      
  8.516e+010      -0.49842        -0.309394       0.147088        -0.00598453     0.784289        0.686451        0.110393        -0.559691      
  8.624e+010      -0.503497       -0.299315       0.144908        -0.00400708     0.791277        0.67556         0.109237        -0.555936      
  8.732e+010      -0.511262       -0.291575       0.145372        -0.00199148     0.804999        0.658538        0.103404        -0.566999      
  8.84e+010       -0.520143       -0.28461        0.14642         -0.000620587    0.818724        0.643623        0.0940556       -0.565824      
  8.948e+010      -0.532356       -0.271623       0.152078        -0.00122032     0.837681        0.610731        0.0728396       -0.565773      
  9.056e+010      -0.527181       -0.24791        0.151061        -0.00732358     0.83513         0.58303         0.0637547       -0.559285      
  9.164e+010      -0.534722       -0.233224       0.150565        -0.00917006     0.835462        0.563531        0.0631616       -0.567246      
  9.272e+010      -0.527155       -0.228675       0.145506        -0.0112359      0.829616        0.549227        0.0647361       -0.559745      
  9.38e+010       -0.5395         -0.215959       0.145989        -0.0120337      0.835919        0.532751        0.0618411       -0.576363      
  9.488e+010      -0.538146       -0.214059       0.141628        -0.0109164      0.841634        0.53086         0.0741735       -0.572451      
  9.596e+010      -0.53855        -0.198442       0.140842        -0.00946695     0.849812        0.513704        0.0551223       -0.577754      
  9.704e+010      -0.539206       -0.182153       0.141525        -0.00929624     0.857103        0.488702        0.0391674       -0.589784      
  9.812e+010      -0.548043       -0.185907       0.14137         -0.00691694     0.869439        0.472212        0.0372584       -0.596009      
  9.92e+010       -0.552025       -0.162461       0.141405        -0.0048942      0.871306        0.447694        0.0317648       -0.590331      
  1.0028e+011     -0.555944       -0.156206       0.144441        -0.00473967     0.884985        0.423047        0.0292704       -0.607041      
  1.0136e+011     -0.556841       -0.145551       0.141416        -0.00396437     0.892611        0.406844        0.0185548       -0.606797      
  1.0244e+011     -0.554443       -0.136069       0.142063        -0.00432175     0.89719         0.385396        0.00760149      -0.600384      
  1.0352e+011     -0.561267       -0.124968       0.139736        -0.000384168    0.904241        0.367264        -0.0148571      -0.616254      
  1.046e+011      -0.558819       -0.114193       0.144364        0.000325165     0.908596        0.350768        -0.0114826      -0.620347      
  1.0568e+011     -0.564332       -0.0935919      0.147701        -0.000959527    0.915462        0.325487        -0.038976       -0.618613      
  1.0676e+011     -0.563876       -0.0936338      0.148105        -0.0050938      0.912357        0.305858        -0.0430973      -0.629211      
  1.0784e+011     -0.564389       -0.0814465      0.148587        -0.00396553     0.907108        0.285936        -0.0603985      -0.60599       
  1.0892e+011     -0.563586       -0.0697387      0.148855        -0.00458418     0.903002        0.274258        -0.0708655      -0.604343      
  1.1e+011        -0.571081       -0.0581805      0.150215        -0.00422807     0.906174        0.261392        -0.0676119      -0.610452      
END_DB

