! VERSION = 6.00
BEGIN_HEADER
 ICCAP_INPUTS
  Vds        V  D GROUND SMU1 0 CON        4.5
  freq       F  LIN        1    2e+009     1.1e+011   101  1.08e+009 
  Vgs        V  G GROUND SMU2 0 CON        0.5
 ICCAP_OUTPUTS
  S_deemb    S  P1 P2 GROUND NWA B
END_HEADER

BEGIN_DB
 ICCAP_VAR Vds        4.5            
 ICCAP_VAR Vgs        0.5            

 #freq            R:S_deemb(1,1)  I:S_deemb(1,1)  R:S_deemb(1,2)  I:S_deemb(1,2)  R:S_deemb(2,1)  I:S_deemb(2,1)  R:S_deemb(2,2)  I:S_deemb(2,2) 
  2e+009          0.995875        -0.087106       -0.000449144    0.00739813      -1.64014        0.137811        0.917241        -0.0360759     
  3.08e+009       0.989807        -0.13584        2.79693e-006    0.0126022       -1.6295         0.20919         0.915587        -0.0550078     
  4.16e+009       0.981397        -0.183066       0.000432868     0.0170705       -1.61502        0.278975        0.914303        -0.0732326     
  5.24e+009       0.969348        -0.231022       0.00174419      0.0226454       -1.59722        0.350762        0.91143         -0.0929053     
  6.32e+009       0.954733        -0.27596        0.00331681      0.02692         -1.5766         0.417677        0.907801        -0.110648      
  7.4e+009        0.939135        -0.320033       0.00441316      0.0310522       -1.55129        0.483588        0.905342        -0.128771      
  8.48e+009       0.9201          -0.363181       0.00636956      0.0352689       -1.52411        0.549109        0.901225        -0.147119      
  9.56e+009       0.899216        -0.40499        0.00830574      0.0393447       -1.4927         0.612919        0.896935        -0.165788      
  1.064e+010      0.876513        -0.445514       0.0103177       0.0435172       -1.45796        0.673815        0.892772        -0.183969      
  1.172e+010      0.851964        -0.483691       0.0125358       0.0472637       -1.42127        0.731674        0.887938        -0.200983      
  1.28e+010       0.825222        -0.521801       0.0148207       0.0515384       -1.38144        0.789135        0.883084        -0.219012      
  1.388e+010      0.795651        -0.557672       0.0181769       0.0558845       -1.3366         0.845086        0.876162        -0.237234      
  1.496e+010      0.764301        -0.590109       0.0218815       0.0593209       -1.28819        0.894145        0.867925        -0.255126      
  1.604e+010      0.733875        -0.620334       0.0250191       0.0621181       -1.24179        0.939951        0.861472        -0.272146      
  1.712e+010      0.701735        -0.649391       0.0282754       0.0653918       -1.19221        0.983309        0.854247        -0.288929      
  1.82e+010       0.667152        -0.676109       0.0320186       0.0682751       -1.14084        1.02648         0.846046        -0.305302      
  1.928e+010      0.630818        -0.700011       0.0368038       0.071109        -1.08484        1.06303         0.836071        -0.320975      
  2.036e+010      0.595001        -0.721111       0.0408346       0.0725815       -1.02989        1.09527         0.82695         -0.335445      
  2.144e+010      0.558909        -0.742066       0.0451229       0.0747383       -0.975165       1.12737         0.817065        -0.352327      
  2.252e+010      0.523116        -0.759542       0.049056        0.0764394       -0.919675       1.15257         0.807805        -0.366512      
  2.36e+010       0.486194        -0.774339       0.0537261       0.077624        -0.863015       1.17566         0.79642         -0.380241      
  2.468e+010      0.449846        -0.785601       0.0583252       0.0780201       -0.806087       1.19307         0.785841        -0.393209      
  2.576e+010      0.414989        -0.796145       0.0623542       0.0786205       -0.752558       1.20941         0.77573         -0.406955      
  2.684e+010      0.379116        -0.805541       0.0666547       0.0788428       -0.697446       1.22146         0.764967        -0.420338      
  2.792e+010      0.34508         -0.811816       0.070653        0.078379        -0.643557       1.2301          0.754111        -0.431864      
  2.9e+010        0.309795        -0.814462       0.0749983       0.0772235       -0.587569       1.23564         0.741801        -0.441527      
  3.008e+010      0.279704        -0.817587       0.0775494       0.0764716       -0.540819       1.23838         0.732492        -0.450476      
  3.116e+010      0.246806        -0.819396       0.082192        0.0755998       -0.488002       1.24182         0.720904        -0.462941      
  3.224e+010      0.214268        -0.820704       0.0847496       0.0737946       -0.441202       1.24143         0.71063         -0.474317      
  3.332e+010      0.184338        -0.818997       0.086728        0.072148        -0.393989       1.23901         0.701199        -0.48362       
  3.44e+010       0.15222         -0.817284       0.0890447       0.0719908       -0.345387       1.23463         0.687969        -0.492541      
  3.548e+010      0.12397         -0.815195       0.0929901       0.0701666       -0.30098        1.22882         0.677879        -0.501931      
  3.656e+010      0.0979759       -0.813077       0.094779        0.0695396       -0.261494       1.22328         0.669785        -0.511731      
  3.764e+010      0.0710378       -0.809628       0.096732        0.0678217       -0.219537       1.21625         0.65793         -0.523523      
  3.872e+010      0.0449913       -0.806509       0.0983622       0.0671369       -0.180812       1.20873         0.647008        -0.533836      
  3.98e+010       0.0191361       -0.798849       0.100324        0.066302        -0.143121       1.19534         0.636374        -0.537942      
  4.088e+010      -0.00676429     -0.792044       0.102315        0.0642565       -0.10409        1.18239         0.625492        -0.545258      
  4.196e+010      -0.0293998      -0.783087       0.104678        0.0632623       -0.0650458      1.17074         0.615339        -0.558239      
  4.304e+010      -0.0536756      -0.779893       0.106609        0.0619211       -0.0326425      1.1611          0.602491        -0.565047      
  4.412e+010      -0.0815684      -0.770728       0.109971        0.0602225       0.00586432      1.14869         0.588332        -0.574643      
  4.52e+010       -0.100507       -0.759945       0.111193        0.0573992       0.035168        1.12831         0.581089        -0.576502      
  4.628e+010      -0.120301       -0.748316       0.112822        0.0549738       0.0660989       1.10988         0.569622        -0.580519      
  4.736e+010      -0.140389       -0.74001        0.113625        0.0507451       0.0930554       1.09288         0.560097        -0.589364      
  4.844e+010      -0.158821       -0.729325       0.113406        0.0504533       0.121203        1.07658         0.550073        -0.594726      
  4.952e+010      -0.183612       -0.715462       0.114905        0.0477842       0.152164        1.05667         0.532681        -0.601162      
  5.06e+010       -0.198735       -0.702033       0.116373        0.0463997       0.173381        1.04385         0.530287        -0.608235      
  5.168e+010      -0.20502        -0.674518       0.112319        0.0445954       0.192189        1.01031         0.528557        -0.600897      
  5.276e+010      -0.210038       -0.710547       0.116111        0.0455531       0.206626        1.02383         0.515427        -0.634147      
  5.384e+010      -0.236407       -0.693641       0.116676        0.0428384       0.234375        1.00126         0.506436        -0.631821      
  5.492e+010      -0.258456       -0.6767         0.116328        0.0409784       0.262685        0.981739        0.486881        -0.635662      
  5.6e+010        -0.276759       -0.67153        0.117106        0.0409256       0.28458         0.970461        0.48192         -0.649897      
  5.708e+010      -0.292505       -0.655939       0.118815        0.0399261       0.309669        0.949179        0.466874        -0.651243      
  5.816e+010      -0.308957       -0.639547       0.12002         0.0365327       0.331072        0.925419        0.452063        -0.657794      
  5.924e+010      -0.318289       -0.62862        0.118824        0.0358376       0.344666        0.906273        0.448053        -0.657462      
  6.032e+010      -0.332303       -0.612284       0.119851        0.0326876       0.363723        0.883854        0.431146        -0.659448      
  6.14e+010       -0.34733        -0.603263       0.11973         0.0310712       0.382722        0.869477        0.424601        -0.673396      
  6.248e+010      -0.352298       -0.586046       0.118919        0.0263409       0.391698        0.843651        0.415707        -0.668854      
  6.356e+010      -0.364257       -0.572391       0.117367        0.0237686       0.408294        0.825938        0.395496        -0.681124      
  6.464e+010      -0.363236       -0.567099       0.113557        0.0247111       0.409797        0.812777        0.402537        -0.68047       
  6.572e+010      -0.369896       -0.556844       0.10907         0.0258818       0.421971        0.795553        0.384577        -0.683557      
  6.68e+010       -0.381057       -0.559487       0.110582        0.0284042       0.438164        0.786411        0.377786        -0.700764      
  6.788e+010      -0.396437       -0.549389       0.111251        0.0294351       0.461913        0.771484        0.359991        -0.705248      
  6.896e+010      -0.429509       -0.539558       0.115501        0.0297628       0.482474        0.757065        0.352111        -0.698861      
  7.004e+010      -0.43794        -0.522728       0.11802         0.0277007       0.498616        0.730402        0.327393        -0.714268      
  7.112e+010      -0.450808       -0.511511       0.119079        0.0248073       0.509623        0.706387        0.311936        -0.713493      
  7.22e+010       -0.453739       -0.494806       0.120039        0.0228621       0.521838        0.684792        0.302646        -0.724831      
  7.328e+010      -0.46638        -0.477062       0.118831        0.0207815       0.527229        0.665724        0.297698        -0.720117      
  7.436e+010      -0.473628       -0.461865       0.119944        0.0184337       0.536379        0.642996        0.28357         -0.719773      
  7.544e+010      -0.482448       -0.445216       0.121057        0.0150294       0.543603        0.620654        0.266825        -0.715446      
  7.652e+010      -0.49036        -0.438838       0.119957        0.0115995       0.549605        0.599611        0.248151        -0.716111      
  7.76e+010       -0.491856       -0.428871       0.116704        0.00988781      0.553091        0.582022        0.234075        -0.720269      
  7.868e+010      -0.500008       -0.410334       0.116462        0.0078397       0.558718        0.563207        0.233252        -0.72887       
  7.976e+010      -0.505547       -0.396836       0.114493        0.00431882      0.560437        0.541073        0.226486        -0.721012      
  8.084e+010      -0.5055         -0.383263       0.109047        0.00217454      0.552442        0.526477        0.21992         -0.714614      
  8.192e+010      -0.509875       -0.381418       0.104736        0.0066146       0.554541        0.524929        0.220456        -0.720995      
  8.3e+010        -0.515666       -0.375712       0.103681        0.00605205      0.558533        0.507387        0.205354        -0.719852      
  8.408e+010      -0.520483       -0.363607       0.102275        0.00627896      0.562997        0.49273         0.192977        -0.723779      
  8.516e+010      -0.527715       -0.345817       0.100719        0.0060182       0.568184        0.478832        0.19053         -0.735107      
  8.624e+010      -0.532321       -0.33687        0.0975897       0.00945776      0.568122        0.469122        0.187102        -0.731174      
  8.732e+010      -0.540171       -0.327199       0.0978175       0.0129081       0.576365        0.458925        0.178365        -0.743779      
  8.84e+010       -0.548407       -0.321647       0.0992833       0.0154951       0.584896        0.446286        0.166369        -0.744175      
  8.948e+010      -0.562558       -0.309586       0.106311        0.0162119       0.599046        0.422205        0.139525        -0.745847      
  9.056e+010      -0.557598       -0.286032       0.105633        0.00955579      0.594019        0.400135        0.125139        -0.738294      
  9.164e+010      -0.566344       -0.269447       0.10451         0.00782711      0.592775        0.384493        0.120255        -0.745958      
  9.272e+010      -0.560211       -0.259569       0.0987083       0.00637009      0.5851          0.373542        0.119762        -0.736896      
  9.38e+010       -0.572608       -0.245767       0.0987839       0.00672059      0.588016        0.359906        0.113023        -0.753052      
  9.488e+010      -0.569983       -0.245926       0.0933702       0.00864288      0.584462        0.357493        0.125583        -0.749524      
  9.596e+010      -0.569503       -0.230137       0.092478        0.0112613       0.587817        0.346847        0.104232        -0.755906      
  9.704e+010      -0.570243       -0.211087       0.0932024       0.0124056       0.591065        0.330088        0.0829699       -0.767247      
  9.812e+010      -0.579714       -0.21359        0.0929888       0.0162179       0.597644        0.320264        0.0762358       -0.773834      
  9.92e+010       -0.583872       -0.187204       0.0932459       0.0192279       0.597356        0.304206        0.07065         -0.766818      
  1.0028e+011     -0.588238       -0.181204       0.0966397       0.0200189       0.606802        0.286616        0.064521        -0.786223      
  1.0136e+011     -0.588304       -0.170289       0.0931598       0.0219892       0.607845        0.274942        0.0511232       -0.787358      
  1.0244e+011     -0.585709       -0.161537       0.0942441       0.0222766       0.60736         0.259815        0.0346107       -0.778846      
  1.0352e+011     -0.592224       -0.147344       0.0918499       0.0281947       0.609949        0.252841        0.0102817       -0.793289      
  1.046e+011      -0.58931        -0.13707        0.0975948       0.0300032       0.61361         0.243105        0.0116057       -0.797479      
  1.0568e+011     -0.595442       -0.117046       0.102785        0.0297045       0.618801        0.22727         -0.0206448      -0.800415      
  1.0676e+011     -0.595966       -0.11473        0.103407        0.0264641       0.615358        0.210884        -0.0320496      -0.809054      
  1.0784e+011     -0.596137       -0.102106       0.104653        0.0282034       0.608666        0.197649        -0.0562939      -0.782835      
  1.0892e+011     -0.594992       -0.0924283      0.105332        0.0280936       0.602549        0.191604        -0.0685528      -0.77432       
  1.1e+011        -0.603357       -0.0801951      0.107027        0.0289281       0.603017        0.185913        -0.0633217      -0.77738       
END_DB

