! VERSION = 6.00
BEGIN_HEADER
 ICCAP_INPUTS
  Vds        V  D GROUND SMU1 0 CON        4.5
  freq       F  LIN        1    2e+009     1.1e+011   101  1.08e+009 
  Vgs        V  G GROUND SMU2 0 CON        -1.9
 ICCAP_OUTPUTS
  S_deemb    S  P1 P2 GROUND NWA B
END_HEADER

BEGIN_DB
 ICCAP_VAR Vds        4.5            
 ICCAP_VAR Vgs        -1.9           

 #freq            R:S_deemb(1,1)  I:S_deemb(1,1)  R:S_deemb(1,2)  I:S_deemb(1,2)  R:S_deemb(2,1)  I:S_deemb(2,1)  R:S_deemb(2,2)  I:S_deemb(2,2) 
  2e+009          0.999029        -0.0411831      4.03751e-005    0.0154712       -0.000342256    0.015514        0.99905         -0.0365416     
  3.08e+009       0.997882        -0.0642862      0.000854535     0.0250736       0.000477667     0.0251214       0.998518        -0.057336      
  4.16e+009       0.995946        -0.0870443      0.00179255      0.03382         0.00142228      0.0338564       0.997402        -0.0776951     
  5.24e+009       0.993384        -0.110242       0.00368744      0.0437831       0.00330494      0.0438413       0.995119        -0.0985357     
  6.32e+009       0.989681        -0.132298       0.00600803      0.0523571       0.00565876      0.0524491       0.992008        -0.11822       
  7.4e+009        0.986269        -0.154452       0.00796931      0.0607908       0.00765333      0.0608653       0.989258        -0.138234      
  8.48e+009       0.981696        -0.17671        0.0109913       0.0693344       0.0106484       0.0694136       0.985332        -0.158766      
  9.56e+009       0.976656        -0.198553       0.0140665       0.0777293       0.0137928       0.077836        0.981162        -0.178939      
  1.064e+010      0.971217        -0.220363       0.0173686       0.0862103       0.0170665       0.0863207       0.976812        -0.198508      
  1.172e+010      0.965277        -0.241458       0.020959        0.0942266       0.0207201       0.0943238       0.972088        -0.21733       
  1.28e+010       0.958995        -0.263554       0.0247511       0.102915        0.0245017       0.103046        0.9672          -0.236685      
  1.388e+010      0.951807        -0.285691       0.0299148       0.111796        0.0296955       0.111935        0.960892        -0.25706       
  1.496e+010      0.942931        -0.306865       0.0356171       0.119683        0.0354066       0.119786        0.953632        -0.276751      
  1.604e+010      0.934649        -0.326835       0.0408654       0.126712        0.0406556       0.126843        0.946814        -0.29553       
  1.712e+010      0.926051        -0.347038       0.0463259       0.134433        0.0461301       0.134553        0.939842        -0.314324      
  1.82e+010       0.916618        -0.367196       0.0525749       0.141867        0.0524023       0.14195         0.932339        -0.332479      
  1.928e+010      0.905582        -0.387512       0.0603597       0.149228        0.0602221       0.149325        0.922951        -0.351074      
  2.036e+010      0.894208        -0.406047       0.0674007       0.15492         0.0672841       0.154994        0.913875        -0.368437      
  2.144e+010      0.883505        -0.425889       0.0747431       0.161789        0.0746643       0.161876        0.90486         -0.386404      
  2.252e+010      0.872343        -0.444537       0.0823755       0.167999        0.0823328       0.168016        0.89617         -0.403928      
  2.36e+010       0.859177        -0.462962       0.0910353       0.173427        0.0910493       0.173485        0.885509        -0.420919      
  2.468e+010      0.846318        -0.478899       0.0998633       0.177902        0.0998968       0.177913        0.874298        -0.437413      
  2.576e+010      0.834879        -0.495182       0.108126        0.182544        0.108185        0.18257         0.86332         -0.454548      
  2.684e+010      0.820589        -0.512721       0.117396        0.186428        0.117263        0.186369        0.851986        -0.470754      
  2.792e+010      0.808328        -0.528198       0.126164        0.189724        0.126427        0.18961         0.840464        -0.485912      
  2.9e+010        0.792971        -0.542447       0.135908        0.192273        0.136079        0.192348        0.8287          -0.499646      
  3.008e+010      0.78111         -0.556923       0.144306        0.194645        0.144323        0.194449        0.81744         -0.513385      
  3.116e+010      0.768223        -0.570336       0.154339        0.197357        0.154625        0.19721         0.804452        -0.528091      
  3.224e+010      0.753488        -0.585132       0.163293        0.198295        0.163449        0.198248        0.792645        -0.542773      
  3.332e+010      0.73998         -0.598653       0.17199         0.198929        0.172136        0.198683        0.78097         -0.557018      
  3.44e+010       0.721879        -0.613755       0.181547        0.200057        0.18194         0.199824        0.766537        -0.571888      
  3.548e+010      0.707597        -0.626414       0.19149         0.200378        0.191719        0.200058        0.753305        -0.582772      
  3.656e+010      0.694812        -0.638143       0.199701        0.200964        0.200125        0.200479        0.74087         -0.595394      
  3.764e+010      0.680219        -0.653148       0.209044        0.2001          0.209503        0.19987         0.727421        -0.609459      
  3.872e+010      0.664347        -0.665264       0.217189        0.199815        0.217525        0.199464        0.712379        -0.62255       
  3.98e+010       0.645237        -0.673085       0.225516        0.198063        0.225983        0.197836        0.697316        -0.631682      
  4.088e+010      0.629223        -0.683937       0.235108        0.196381        0.235121        0.195313        0.683035        -0.643405      
  4.196e+010      0.613546        -0.692632       0.243107        0.194372        0.243819        0.193798        0.668184        -0.654446      
  4.304e+010      0.598482        -0.703206       0.252338        0.193058        0.25255         0.192808        0.653318        -0.664279      
  4.412e+010      0.580074        -0.713659       0.263059        0.191151        0.263399        0.190403        0.637788        -0.673875      
  4.52e+010       0.564149        -0.718369       0.270203        0.186786        0.270514        0.186334        0.623595        -0.679156      
  4.628e+010      0.546171        -0.723975       0.277702        0.182488        0.278019        0.181747        0.60801         -0.68572       
  4.736e+010      0.532417        -0.730888       0.286689        0.177634        0.287145        0.176711        0.595459        -0.69428       
  4.844e+010      0.515916        -0.737364       0.291941        0.173456        0.292257        0.172978        0.580556        -0.701302      
  4.952e+010      0.495157        -0.743663       0.301173        0.167445        0.301818        0.167047        0.563807        -0.709264      
  5.06e+010       0.483901        -0.743981       0.306593        0.165101        0.307081        0.16446         0.555551        -0.714235      
  5.168e+010      0.467779        -0.740857       0.305455        0.15745         0.305793        0.156954        0.546843        -0.707912      
  5.276e+010      0.471766        -0.765448       0.319852        0.16333         0.319942        0.162483        0.533489        -0.744668      
  5.384e+010      0.449536        -0.770242       0.325437        0.154947        0.326389        0.154154        0.513221        -0.742501      
  5.492e+010      0.429428        -0.773692       0.331708        0.147719        0.331958        0.146845        0.49652         -0.747829      
  5.6e+010        0.413754        -0.783278       0.338842        0.146225        0.338545        0.145035        0.485237        -0.755179      
  5.708e+010      0.397289        -0.785183       0.345345        0.140367        0.346349        0.139364        0.466938        -0.759003      
  5.816e+010      0.377842        -0.784443       0.353287        0.131961        0.35319         0.131256        0.450175        -0.763603      
  5.924e+010      0.365245        -0.789222       0.354362        0.126531        0.354824        0.126047        0.43872         -0.765345      
  6.032e+010      0.347866        -0.788293       0.361561        0.118389        0.361807        0.117326        0.421815        -0.769899      
  6.14e+010       0.332618        -0.793471       0.36895         0.113805        0.369883        0.112792        0.410867        -0.775814      
  6.248e+010      0.323452        -0.789571       0.370973        0.103261        0.372106        0.102332        0.399843        -0.772542      
  6.356e+010      0.304685        -0.787749       0.375688        0.0958964       0.376337        0.0951132       0.382473        -0.783254      
  6.464e+010      0.300849        -0.791155       0.373441        0.0924148       0.372755        0.0916673       0.371128        -0.786255      
  6.572e+010      0.292239        -0.788812       0.372042        0.0864814       0.372109        0.0848309       0.353183        -0.794073      
  6.68e+010       0.285056        -0.801653       0.379476        0.0884108       0.37911         0.0863254       0.346047        -0.796891      
  6.788e+010      0.276604        -0.810098       0.385416        0.0827713       0.385039        0.0835778       0.329652        -0.801682      
  6.896e+010      0.23928         -0.822903       0.397233        0.07666         0.396095        0.0785232       0.320336        -0.793517      
  7.004e+010      0.226967        -0.815577       0.402022        0.0669768       0.400347        0.0692236       0.292195        -0.805915      
  7.112e+010      0.210001        -0.816885       0.405937        0.0580515       0.404623        0.0601374       0.275009        -0.802561      
  7.22e+010       0.202221        -0.817113       0.411408        0.0497346       0.410014        0.0526681       0.264444        -0.813408      
  7.328e+010      0.181178        -0.81213        0.413257        0.0413376       0.412228        0.0442104       0.257643        -0.806641      
  7.436e+010      0.167426        -0.809568       0.417572        0.0319381       0.416321        0.0357479       0.24233         -0.804796      
  7.544e+010      0.14964         -0.803679       0.421279        0.0216435       0.420299        0.0253682       0.225003        -0.798219      
  7.652e+010      0.138068        -0.80864        0.423095        0.011243        0.422542        0.0144863       0.203971        -0.797703      
  7.76e+010       0.133622        -0.811058       0.422368        0.00194779      0.42175         0.00542358      0.186855        -0.801148      
  7.868e+010      0.116763        -0.804352       0.424561        -0.00729293     0.424217        -0.00382849     0.185594        -0.810166      
  7.976e+010      0.10317         -0.80202        0.423904        -0.0186818      0.423566        -0.0148298      0.177682        -0.801657      
  8.084e+010      0.0934297       -0.791933       0.416703        -0.0292795      0.416713        -0.0248546      0.167053        -0.795402      
  8.192e+010      0.0850062       -0.79183        0.413802        -0.028139       0.413954        -0.0238903      0.163768        -0.798392      
  8.3e+010        0.0827623       -0.801557       0.412808        -0.0361344      0.412794        -0.0320146      0.145547        -0.794908      
  8.408e+010      0.073002        -0.803265       0.411704        -0.0425835      0.412062        -0.0379004      0.129201        -0.797494      
  8.516e+010      0.0568667       -0.7959         0.411821        -0.0504469      0.412092        -0.0456888      0.125526        -0.8083        
  8.624e+010      0.049971        -0.79499        0.406547        -0.0523943      0.406327        -0.0477129      0.118964        -0.800066      
  8.732e+010      0.0373519       -0.795353       0.40768         -0.052959       0.407075        -0.049493       0.108192        -0.808711      
  8.84e+010       0.0280229       -0.802955       0.410348        -0.0544887      0.409794        -0.0522893      0.0955534       -0.803429      
  8.948e+010      0.00521647      -0.816337       0.420358        -0.0620993      0.420283        -0.0592294      0.0716429       -0.800629      
  9.056e+010      -0.00468238     -0.800375       0.418251        -0.0793138      0.418513        -0.076609       0.0560052       -0.794879      
  9.164e+010      -0.0266582      -0.788846       0.415227        -0.0888892      0.415077        -0.0863661      0.0501823       -0.80288       
  9.272e+010      -0.0244157      -0.788161       0.405921        -0.0957513      0.405894        -0.0924928      0.045346        -0.791344      
  9.38e+010       -0.0479373      -0.780643       0.404656        -0.102591       0.404591        -0.0990602      0.0364756       -0.8065        
  9.488e+010      -0.0521153      -0.79168        0.39724         -0.105164       0.397267        -0.101333       0.0446777       -0.800491      
  9.596e+010      -0.0579795      -0.781292       0.394926        -0.107709       0.394834        -0.103917       0.0201075       -0.802609      
  9.704e+010      -0.0665783      -0.768734       0.394178        -0.112633       0.3934          -0.111205       -0.00279073     -0.811785      
  9.812e+010      -0.0740851      -0.785391       0.391945        -0.113525       0.390135        -0.11368        -0.0110364      -0.811036      
  9.92e+010       -0.0967111      -0.773916       0.388225        -0.111656       0.38538         -0.115559       -0.0157448      -0.798802      
  1.0028e+011     -0.110382       -0.77285        0.394242        -0.112864       0.390106        -0.121837       -0.02029        -0.815053      
  1.0136e+011     -0.113122       -0.769864       0.3904          -0.115198       0.385963        -0.127431       -0.0367067      -0.811808      
  1.0244e+011     -0.115183       -0.76833        0.389222        -0.120968       0.384178        -0.134447       -0.0534675      -0.801293      
  1.0352e+011     -0.128824       -0.767955       0.381507        -0.119842       0.376964        -0.132649       -0.0820512      -0.808529      
  1.046e+011      -0.133015       -0.768469       0.386307        -0.117156       0.382602        -0.127983       -0.0745792      -0.806065      
  1.0568e+011     -0.153871       -0.760625       0.394059        -0.12442        0.391271        -0.131232       -0.102711       -0.802709      
  1.0676e+011     -0.159471       -0.769376       0.39575         -0.138191       0.394123        -0.141103       -0.109911       -0.812865      
  1.0784e+011     -0.170368       -0.768589       0.39345         -0.146334       0.392668        -0.146762       -0.131533       -0.784989      
  1.0892e+011     -0.180581       -0.77294        0.388458        -0.155679       0.38862         -0.15336        -0.145054       -0.77871       
  1.1e+011        -0.206956       -0.775349       0.381911        -0.159636       0.38297         -0.155967       -0.144001       -0.779163      
END_DB

