! VERSION = 6.00
BEGIN_HEADER
 ICCAP_INPUTS
  Vds        V  D GROUND SMU1 0 CON        4.5
  freq       F  LIN        1    2e+009     1.1e+011   101  1.08e+009 
  Vgs        V  G GROUND SMU2 0 CON        -1.3
 ICCAP_OUTPUTS
  S_deemb    S  P1 P2 GROUND NWA B
END_HEADER

BEGIN_DB
 ICCAP_VAR Vds        4.5            
 ICCAP_VAR Vgs        -1.3           

 #freq            R:S_deemb(1,1)  I:S_deemb(1,1)  R:S_deemb(1,2)  I:S_deemb(1,2)  R:S_deemb(2,1)  I:S_deemb(2,1)  R:S_deemb(2,2)  I:S_deemb(2,2) 
  2e+009          0.998984        -0.0450244      -6.70678e-005   0.0151272       -0.0388977      0.0179463       0.989872        -0.0362599     
  3.08e+009       0.997529        -0.0702826      0.000765965     0.0245413       -0.0367275      0.0286591       0.989348        -0.0569083     
  4.16e+009       0.995274        -0.094897       0.00171545      0.0330773       -0.0333529      0.0383754       0.988271        -0.0771648     
  5.24e+009       0.992125        -0.120064       0.00361862      0.0428432       -0.030841       0.0494743       0.985993        -0.0978698     
  6.32e+009       0.98783         -0.144151       0.00597429      0.0512095       -0.0290747      0.059332        0.982931        -0.117339      
  7.4e+009        0.98385         -0.167734       0.00796786      0.0594334       -0.0233227      0.0681333       0.980204        -0.137258      
  8.48e+009       0.978395        -0.191968       0.0109809       0.0677565       -0.0208708      0.0779782       0.976222        -0.157676      
  9.56e+009       0.972464        -0.215537       0.0141216       0.0759193       -0.016654       0.0872271       0.972125        -0.177712      
  1.064e+010      0.966132        -0.239038       0.0174538       0.0841483       -0.0125218      0.0965103       0.967917        -0.197018      
  1.172e+010      0.959114        -0.261765       0.0210834       0.0919619       -0.00819669     0.105393        0.963231        -0.215749      
  1.28e+010       0.951681        -0.285334       0.0249078       0.100374        -0.00324432     0.114735        0.958357        -0.234922      
  1.388e+010      0.943054        -0.309128       0.0300796       0.108989        0.00221823      0.124622        0.952061        -0.255172      
  1.496e+010      0.932935        -0.3317         0.035858        0.116596        0.00884508      0.133153        0.944956        -0.274648      
  1.604e+010      0.923284        -0.353148       0.0410808       0.123367        0.0145179       0.14104         0.93813         -0.293257      
  1.712e+010      0.913579        -0.374033       0.046571        0.130783        0.0226495       0.148403        0.931248        -0.312053      
  1.82e+010       0.902313        -0.395795       0.0528622       0.137898        0.0286825       0.156998        0.923921        -0.329971      
  1.928e+010      0.889789        -0.416949       0.0606588       0.14493         0.038064        0.164459        0.914482        -0.348494      
  2.036e+010      0.876683        -0.436618       0.0676992       0.150285        0.045887        0.170653        0.905661        -0.365732      
  2.144e+010      0.864408        -0.457371       0.0750084       0.156788        0.0542121       0.177878        0.896584        -0.383387      
  2.252e+010      0.851663        -0.476573       0.0826732       0.162627        0.0634224       0.183876        0.888178        -0.400954      
  2.36e+010       0.836851        -0.495846       0.0913106       0.16766         0.0727529       0.189694        0.877645        -0.417717      
  2.468e+010      0.822874        -0.511666       0.100054        0.171728        0.0839888       0.193042        0.866426        -0.434116      
  2.576e+010      0.808938        -0.529442       0.108234        0.176026        0.0918366       0.19893         0.855623        -0.451034      
  2.684e+010      0.793435        -0.546649       0.117346        0.179454        0.102831        0.202023        0.844434        -0.467012      
  2.792e+010      0.779089        -0.562962       0.126123        0.182434        0.112264        0.205646        0.833189        -0.48207       
  2.9e+010        0.762682        -0.577115       0.135657        0.184502        0.123616        0.207256        0.821537        -0.49581       
  3.008e+010      0.748863        -0.59169        0.14378         0.186468        0.13239         0.209564        0.810512        -0.509417      
  3.116e+010      0.734375        -0.60514        0.153705        0.188544        0.143982        0.211408        0.797812        -0.523839      
  3.224e+010      0.717873        -0.620058       0.162521        0.189266        0.153326        0.212504        0.785905        -0.538741      
  3.332e+010      0.702309        -0.633835       0.17096         0.189382        0.162808        0.213033        0.774553        -0.552622      
  3.44e+010       0.682431        -0.64882        0.180155        0.19007         0.173191        0.213852        0.760859        -0.567776      
  3.548e+010      0.666921        -0.660993       0.189832        0.190007        0.183831        0.21316         0.747549        -0.578352      
  3.656e+010      0.651942        -0.672794       0.197711        0.190061        0.192747        0.213394        0.735239        -0.590837      
  3.764e+010      0.636252        -0.687014       0.206843        0.189083        0.202894        0.211764        0.722001        -0.604688      
  3.872e+010      0.617869        -0.698958       0.214465        0.188275        0.211508        0.211486        0.707272        -0.617801      
  3.98e+010       0.59858         -0.705996       0.222244        0.186455        0.22063         0.208875        0.692266        -0.627197      
  4.088e+010      0.580115        -0.716507       0.231309        0.184146        0.230138        0.206574        0.678074        -0.638456      
  4.196e+010      0.563587        -0.724267       0.239501        0.181956        0.23915         0.204212        0.663713        -0.649983      
  4.304e+010      0.54653         -0.734519       0.247812        0.180232        0.248408        0.202409        0.649026        -0.659451      
  4.412e+010      0.52639         -0.744152       0.258071        0.177682        0.259761        0.199009        0.633894        -0.669565      
  4.52e+010       0.508854        -0.748409       0.264947        0.173308        0.267117        0.194792        0.619983        -0.674603      
  4.628e+010      0.490898        -0.752548       0.272207        0.168731        0.275123        0.189206        0.604565        -0.681642      
  4.736e+010      0.475384        -0.759463       0.280621        0.163457        0.284033        0.18414         0.592428        -0.689706      
  4.844e+010      0.457577        -0.764881       0.285185        0.159467        0.289735        0.179205        0.577478        -0.697527      
  4.952e+010      0.434987        -0.769857       0.293934        0.152998        0.299131        0.172652        0.560824        -0.705332      
  5.06e+010       0.42333         -0.769562       0.299079        0.150897        0.304824        0.16919         0.552839        -0.71035       
  5.168e+010      0.406262        -0.764464       0.297553        0.143106        0.303464        0.161199        0.544251        -0.705274      
  5.276e+010      0.410068        -0.790871       0.311192        0.147989        0.317771        0.166142        0.530883        -0.741226      
  5.384e+010      0.386781        -0.793703       0.316898        0.13966         0.32421         0.157073        0.510811        -0.739333      
  5.492e+010      0.364617        -0.796584       0.321567        0.132305        0.329825        0.148704        0.493938        -0.745088      
  5.6e+010        0.348279        -0.804547       0.327646        0.130467        0.336542        0.146014        0.482513        -0.752073      
  5.708e+010      0.330194        -0.805787       0.335044        0.124372        0.343651        0.14023         0.464833        -0.756499      
  5.816e+010      0.310938        -0.804531       0.341336        0.116381        0.350795        0.131869        0.448472        -0.760422      
  5.924e+010      0.296791        -0.807179       0.342839        0.110492        0.352303        0.125681        0.436873        -0.763644      
  6.032e+010      0.278229        -0.804816       0.349212        0.102852        0.359383        0.116405        0.420144        -0.767328      
  6.14e+010       0.263153        -0.809501       0.35514         0.0978052       0.36575         0.111172        0.409607        -0.774072      
  6.248e+010      0.251754        -0.804734       0.357323        0.0876125       0.368189        0.100291        0.398442        -0.771395      
  6.356e+010      0.232671        -0.803301       0.361636        0.0795356       0.372805        0.0916119       0.381203        -0.781303      
  6.464e+010      0.230206        -0.804037       0.358436        0.076874        0.368896        0.0888757       0.36911         -0.785391      
  6.572e+010      0.220459        -0.800206       0.356118        0.0714376       0.367879        0.0812805       0.350697        -0.794007      
  6.68e+010       0.212305        -0.813419       0.362878        0.0726883       0.37363         0.0818698       0.343753        -0.796001      
  6.788e+010      0.180224        -0.815947       0.367748        0.0659892       0.381732        0.10201         0.328422        -0.801209      
  6.896e+010      0.14122         -0.826519       0.378793        0.0600792       0.392016        0.0964215       0.319261        -0.793492      
  7.004e+010      0.124022        -0.816049       0.383155        0.0504425       0.397953        0.0887912       0.290076        -0.806214      
  7.112e+010      0.103478        -0.814827       0.385691        0.0426682       0.402304        0.0787264       0.273801        -0.802251      
  7.22e+010       0.0930625       -0.812613       0.389731        0.0349508       0.408119        0.0721818       0.263348        -0.812964      
  7.328e+010      0.0767745       -0.806745       0.391432        0.0253082       0.409188        0.0586635       0.255948        -0.807249      
  7.436e+010      0.0501672       -0.797701       0.395158        0.0162914       0.415148        0.0622251       0.240487        -0.80588       
  7.544e+010      0.0428938       -0.793274       0.397622        0.00526205      0.418087        0.0410137       0.221981        -0.799528      
  7.652e+010      0.0302594       -0.796732       0.398947        -0.00497567     0.419256        0.0297241       0.200791        -0.799115      
  7.76e+010       0.0201194       -0.796074       0.39721         -0.0133444      0.418717        0.0243268       0.183757        -0.802414      
  7.868e+010      -0.00604038     -0.783257       0.398817        -0.0217287      0.423669        0.0251413       0.182844        -0.811571      
  7.976e+010      -0.0319362      -0.770312       0.397657        -0.0317275      0.42667         0.0288702       0.175709        -0.803659      
  8.084e+010      -0.0324227      -0.765424       0.390523        -0.0427809      0.416638        0.00864075      0.164152        -0.798739      
  8.192e+010      -0.0366722      -0.765924       0.386109        -0.0433006      0.412268        0.0056283       0.158789        -0.801396      
  8.3e+010        -0.0338004      -0.779098       0.384892        -0.0505968      0.408608        -0.0130722      0.140745        -0.797383      
  8.408e+010      -0.0539998      -0.771872       0.381755        -0.055645       0.41121         -0.00892812     0.124313        -0.798376      
  8.516e+010      -0.0837627      -0.753109       0.382947        -0.0643959      0.418074        -0.000806033    0.119914        -0.811389      
  8.624e+010      -0.0816281      -0.757784       0.375672        -0.0648514      0.408178        -0.0151542      0.113704        -0.801658      
  8.732e+010      -0.0964499      -0.753528       0.378378        -0.0646807      0.411165        -0.0149773      0.103129        -0.811458      
  8.84e+010       -0.102235       -0.763399       0.37947         -0.0673557      0.410195        -0.0246221      0.0899915       -0.806268      
  8.948e+010      -0.125016       -0.772651       0.388079        -0.0734426      0.420108        -0.0348218      0.0667134       -0.802993      
  9.056e+010      -0.127404       -0.759157       0.386868        -0.0900027      0.414554        -0.0593981      0.0506992       -0.798322      
  9.164e+010      -0.144015       -0.751052       0.38259         -0.0993419      0.408138        -0.0735255      0.043494        -0.806305      
  9.272e+010      -0.15187        -0.738596       0.373678        -0.104725       0.405002        -0.0698543      0.0393492       -0.794485      
  9.38e+010       -0.167935       -0.737474       0.370979        -0.111176       0.398867        -0.0832721      0.0306494       -0.809362      
  9.488e+010      -0.173482       -0.746579       0.363638        -0.113239       0.391387        -0.0855137      0.0387036       -0.803725      
  9.596e+010      -0.173134       -0.741284       0.36115         -0.115673       0.384892        -0.0949521      0.0135056       -0.805809      
  9.704e+010      -0.184161       -0.725019       0.360078        -0.121029       0.384814        -0.1006         -0.0104842      -0.815046      
  9.812e+010      -0.190087       -0.742581       0.35784         -0.121301       0.379771        -0.106045       -0.0186903      -0.81422       
  9.92e+010       -0.215717       -0.722405       0.354081        -0.118125       0.377718        -0.104732       -0.0231506      -0.80174       
  1.0028e+011     -0.229824       -0.719422       0.359599        -0.119688       0.382842        -0.110615       -0.0272788      -0.818629      
  1.0136e+011     -0.231669       -0.719047       0.355238        -0.1219         0.376077        -0.118144       -0.0436867      -0.815369      
  1.0244e+011     -0.236482       -0.714996       0.354439        -0.127554       0.374538        -0.124594       -0.0606625      -0.805017      
  1.0352e+011     -0.248269       -0.712926       0.346807        -0.126458       0.366819        -0.124825       -0.0896644      -0.811762      
  1.046e+011      -0.255255       -0.707996       0.352687        -0.122195       0.373687        -0.119426       -0.0813911      -0.810213      
  1.0568e+011     -0.2705         -0.702328       0.359498        -0.130865       0.378321        -0.127221       -0.110688       -0.80715       
  1.0676e+011     -0.280797       -0.705275       0.359378        -0.142515       0.382139        -0.134919       -0.118249       -0.817298      
  1.0784e+011     -0.290039       -0.705679       0.355819        -0.15011        0.377123        -0.142314       -0.140044       -0.789286      
  1.0892e+011     -0.296507       -0.711928       0.351338        -0.157423       0.36985         -0.150815       -0.154025       -0.783101      
  1.1e+011        -0.321647       -0.711556       0.345585        -0.161385       0.363911        -0.153886       -0.153078       -0.783416      
END_DB

