! VERSION = 6.00
BEGIN_HEADER
 ICCAP_INPUTS
  Vds        V  D GROUND SMU1 0 CON        4.5
  freq       F  LIN        1    2e+009     1.1e+011   101  1.08e+009 
  Vgs        V  G GROUND SMU2 0 CON        0
 ICCAP_OUTPUTS
  S_deemb    S  P1 P2 GROUND NWA B
END_HEADER

BEGIN_DB
 ICCAP_VAR Vds        4.5            
 ICCAP_VAR Vgs        0              

 #freq            R:S_deemb(1,1)  I:S_deemb(1,1)  R:S_deemb(1,2)  I:S_deemb(1,2)  R:S_deemb(2,1)  I:S_deemb(2,1)  R:S_deemb(2,2)  I:S_deemb(2,2) 
  2e+009          0.990526        -0.0914255      0.00142081      0.00810503      -2.81528        0.217884        0.879396        -0.0337303     
  3.08e+009       0.984048        -0.143339       0.00194093      0.0136732       -2.80066        0.343739        0.878534        -0.0578864     
  4.16e+009       0.974681        -0.193164       0.00253452      0.0184821       -2.78051        0.465323        0.877285        -0.0799313     
  5.24e+009       0.961082        -0.244252       0.00399781      0.0243819       -2.75013        0.589574        0.873453        -0.103603      
  6.32e+009       0.944901        -0.291292       0.00577561      0.0289709       -2.71335        0.703597        0.868761        -0.124302      
  7.4e+009        0.927854        -0.337851       0.00715786      0.0334366       -2.67532        0.818917        0.865078        -0.1454        
  8.48e+009       0.906947        -0.383068       0.00939473      0.0379124       -2.6264         0.93102         0.859053        -0.166756      
  9.56e+009       0.883777        -0.426662       0.0116901       0.0422382       -2.57408        1.04082         0.852928        -0.187832      
  1.064e+010      0.858639        -0.469283       0.0141021       0.0465779       -2.51508        1.14662         0.84648         -0.208583      
  1.172e+010      0.83139         -0.508883       0.0166852       0.050526        -2.45042        1.24649         0.83946         -0.228032      
  1.28e+010       0.801674        -0.548832       0.0194812       0.0548869       -2.38038        1.34604         0.831631        -0.248551      
  1.388e+010      0.768766        -0.585702       0.0232803       0.0592592       -2.29893        1.4394          0.820873        -0.269252      
  1.496e+010      0.73382         -0.618574       0.0274178       0.0626578       -2.21532        1.52263         0.809027        -0.288181      
  1.604e+010      0.700092        -0.649096       0.0309848       0.0654161       -2.13423        1.59991         0.799232        -0.306048      
  1.712e+010      0.663883        -0.67837        0.034747        0.0685316       -2.04708        1.67574         0.788383        -0.324279      
  1.82e+010       0.625695        -0.704522       0.0389584       0.0712331       -1.95616        1.74606         0.776165        -0.341163      
  1.928e+010      0.585814        -0.727          0.0440877       0.0737076       -1.85736        1.80374         0.761172        -0.357085      
  2.036e+010      0.546468        -0.746948       0.0484985       0.0749487       -1.76283        1.85862         0.748428        -0.371161      
  2.144e+010      0.506448        -0.766024       0.0530877       0.0767186       -1.66447        1.90653         0.733774        -0.387428      
  2.252e+010      0.466935        -0.781239       0.0573072       0.0779855       -1.56713        1.94785         0.72013         -0.40034       
  2.36e+010       0.4267          -0.793194       0.062087        0.0787847       -1.47119        1.9823          0.704892        -0.412203      
  2.468e+010      0.387576        -0.801213       0.0668968       0.0786646       -1.37232        2.00875         0.690056        -0.423271      
  2.576e+010      0.351837        -0.808194       0.0709915       0.0789626       -1.27994        2.02894         0.676142        -0.435416      
  2.684e+010      0.313802        -0.815022       0.0752815       0.0787665       -1.18736        2.04399         0.662188        -0.444989      
  2.792e+010      0.278622        -0.8168         0.0794283       0.0778401       -1.09567        2.05382         0.64792         -0.45422       
  2.9e+010        0.241043        -0.814587       0.0833907       0.0762432       -1.00165        2.05702         0.63233         -0.460829      
  3.008e+010      0.211427        -0.81441        0.0859316       0.0753362       -0.923405       2.05624         0.62027         -0.466438      
  3.116e+010      0.17894         -0.812102       0.0901893       0.073967        -0.836597       2.05585         0.605364        -0.475545      
  3.224e+010      0.146336        -0.810284       0.0926671       0.0720234       -0.758393       2.04918         0.593117        -0.482401      
  3.332e+010      0.118334        -0.804442       0.0945481       0.0703872       -0.682769       2.03783         0.582246        -0.488133      
  3.44e+010       0.0863262       -0.799764       0.0970096       0.0699959       -0.607598       2.02612         0.568423        -0.494762      
  3.548e+010      0.0596117       -0.794831       0.100551        0.0679686       -0.537366       2.01173         0.555619        -0.49934       
  3.656e+010      0.0357805       -0.790129       0.102131        0.0669987       -0.475801       1.99881         0.546436        -0.505057      
  3.764e+010      0.0109825       -0.784981       0.104115        0.0654525       -0.412256       1.98387         0.533543        -0.51211       
  3.872e+010      -0.012808       -0.78119        0.105609        0.0649491       -0.353864       1.96891         0.522233        -0.518939      
  3.98e+010       -0.0391492      -0.770714       0.107761        0.0634146       -0.293142       1.94736         0.511367        -0.520573      
  4.088e+010      -0.0629002      -0.761734       0.109869        0.0614453       -0.23287        1.9253          0.499791        -0.525208      
  4.196e+010      -0.0831647      -0.751385       0.112172        0.0603098       -0.17506        1.90506         0.489067        -0.532537      
  4.304e+010      -0.106086       -0.747771       0.113508        0.0588233       -0.1248         1.88801         0.476859        -0.535714      
  4.412e+010      -0.132312       -0.736863       0.11659         0.0569925       -0.06488        1.86677         0.463162        -0.540553      
  4.52e+010       -0.150169       -0.724532       0.117709        0.0542169       -0.0202606      1.8352          0.454925        -0.539815      
  4.628e+010      -0.168508       -0.711522       0.118974        0.0519132       0.0261293       1.80492         0.443242        -0.540631      
  4.736e+010      -0.187074       -0.699871       0.120095        0.0479151       0.069611        1.77932         0.43459         -0.543647      
  4.844e+010      -0.20165        -0.691275       0.119337        0.0473507       0.109333        1.75317         0.426094        -0.54631       
  4.952e+010      -0.223887       -0.675567       0.120581        0.0448029       0.157184        1.72298         0.412777        -0.548235      
  5.06e+010       -0.238623       -0.66223        0.122352        0.0433198       0.18831         1.70511         0.40988         -0.552655      
  5.168e+010      -0.240278       -0.635225       0.118444        0.0419002       0.220343        1.65527         0.408954        -0.545977      
  5.276e+010      -0.248959       -0.671187       0.122346        0.0422317       0.243117        1.672           0.39385         -0.57083       
  5.384e+010      -0.274027       -0.654131       0.123034        0.0396795       0.287188        1.63706         0.384254        -0.566817      
  5.492e+010      -0.290206       -0.636908       0.121986        0.0381628       0.326991        1.60992         0.371664        -0.567938      
  5.6e+010        -0.311047       -0.629483       0.122859        0.0381692       0.361784        1.59055         0.365775        -0.575736      
  5.708e+010      -0.324032       -0.616075       0.124211        0.0365077       0.399711        1.55973         0.353046        -0.575637      
  5.816e+010      -0.338961       -0.595449       0.125576        0.0335336       0.432223        1.52433         0.341306        -0.577814      
  5.924e+010      -0.350478       -0.590194       0.124193        0.032074        0.455401        1.5             0.337614        -0.578154      
  6.032e+010      -0.357854       -0.572705       0.125577        0.0298879       0.484588        1.46394         0.325427        -0.577045      
  6.14e+010       -0.376399       -0.559558       0.12513         0.0274328       0.516148        1.44324         0.319077        -0.583077      
  6.248e+010      -0.373161       -0.544824       0.123824        0.0235362       0.527612        1.40764         0.312211        -0.577585      
  6.356e+010      -0.384804       -0.526679       0.122849        0.0217397       0.554168        1.37996         0.297901        -0.585185      
  6.464e+010      -0.386354       -0.533172       0.119439        0.0216243       0.562326        1.36291         0.3002          -0.586303      
  6.572e+010      -0.386005       -0.525094       0.115812        0.0230705       0.583729        1.34087         0.289358        -0.591031      
  6.68e+010       -0.403783       -0.524918       0.11734         0.0240811       0.609151        1.32463         0.284832        -0.599566      
  6.788e+010      -0.414372       -0.517146       0.117813        0.0254736       0.639017        1.29826         0.273015        -0.602638      
  6.896e+010      -0.447667       -0.505541       0.121491        0.0254721       0.669991        1.2756          0.265582        -0.593265      
  7.004e+010      -0.455082       -0.488299       0.123594        0.023603        0.69459         1.23695         0.246284        -0.605751      
  7.112e+010      -0.466448       -0.476115       0.124227        0.0213194       0.712699        1.20325         0.234729        -0.60369       
  7.22e+010       -0.468801       -0.459679       0.125365        0.0193304       0.732126        1.17408         0.22872         -0.613534      
  7.328e+010      -0.480142       -0.442523       0.124431        0.0173291       0.744103        1.14664         0.226734        -0.606817      
  7.436e+010      -0.486076       -0.427615       0.125017        0.0151018       0.759379        1.11254         0.216016        -0.60413       
  7.544e+010      -0.49365        -0.411087       0.125922        0.0119897       0.772749        1.08105         0.203005        -0.597857      
  7.652e+010      -0.500199       -0.404435       0.124765        0.00881418      0.78412         1.0502          0.188538        -0.597172      
  7.76e+010       -0.500541       -0.395829       0.122052        0.00720565      0.791617        1.02501         0.179356        -0.600574      
  7.868e+010      -0.50734        -0.378441       0.121747        0.00522099      0.799573        0.996206        0.181889        -0.607977      
  7.976e+010      -0.511045       -0.366441       0.119981        0.00214458      0.801281        0.964576        0.179232        -0.598776      
  8.084e+010      -0.509606       -0.355064       0.114948        5.22804e-005    0.795829        0.950689        0.177927        -0.59311       
  8.192e+010      -0.514611       -0.354653       0.111513        0.00366996      0.807875        0.951627        0.180665        -0.599999      
  8.3e+010        -0.520336       -0.349141       0.110452        0.00325544      0.818597        0.928248        0.170178        -0.599604      
  8.408e+010      -0.525337       -0.337614       0.109114        0.00329436      0.827842        0.905623        0.161122        -0.604899      
  8.516e+010      -0.53203        -0.321196       0.107586        0.00292356      0.840191        0.884414        0.162746        -0.614265      
  8.624e+010      -0.537059       -0.313981       0.104798        0.00574191      0.847735        0.871987        0.162138        -0.61297       
  8.732e+010      -0.54621        -0.305612       0.105102        0.00860137      0.867786        0.855952        0.156328        -0.626102      
  8.84e+010       -0.555389       -0.300441       0.106016        0.0108863       0.886795        0.83804         0.146218        -0.62699       
  8.948e+010      -0.570488       -0.285504       0.112192        0.0117515       0.909683        0.797776        0.12201         -0.628501      
  9.056e+010      -0.563544       -0.261661       0.111403        0.00537053      0.907253        0.768179        0.112952        -0.620789      
  9.164e+010      -0.57113        -0.246185       0.110349        0.00399661      0.910193        0.745685        0.112672        -0.629165      
  9.272e+010      -0.564381       -0.238572       0.105184        0.00245434      0.904956        0.730269        0.116252        -0.623072      
  9.38e+010       -0.576397       -0.226122       0.105301        0.00243933      0.916455        0.712414        0.112905        -0.640811      
  9.488e+010      -0.574666       -0.2278         0.10022         0.00418405      0.92177         0.712385        0.127482        -0.639493      
  9.596e+010      -0.575415       -0.213195       0.0993269       0.00642602      0.935828        0.69325         0.108631        -0.6477        
  9.704e+010      -0.57698        -0.194396       0.0998297       0.00744819      0.947262        0.663902        0.0921012       -0.66134       
  9.812e+010      -0.587322       -0.197185       0.0994066       0.0109312       0.966565        0.645582        0.089053        -0.671957      
  9.92e+010       -0.592472       -0.171366       0.0994145       0.0137817       0.972549        0.615132        0.0823706       -0.668699      
  1.0028e+011     -0.596862       -0.164907       0.102813        0.0144825       0.993036        0.585418        0.0774996       -0.687202      
  1.0136e+011     -0.59808        -0.155706       0.0992588       0.016151        1.00562         0.566381        0.0667814       -0.69065       
  1.0244e+011     -0.596464       -0.146569       0.100215        0.0165988       1.01126         0.540062        0.0544964       -0.685392      
  1.0352e+011     -0.604589       -0.132979       0.0977121       0.0221627       1.02596         0.518703        0.0315958       -0.706299      
  1.046e+011      -0.602881       -0.120934       0.102936        0.0239392       1.03394         0.496071        0.0309502       -0.712711      
  1.0568e+011     -0.609049       -0.0998467      0.107198        0.0236309       1.04377         0.463916        -0.00114126     -0.714161      
  1.0676e+011     -0.608803       -0.0969851      0.107931        0.0206248       1.04081         0.437987        -0.00838531     -0.723644      
  1.0784e+011     -0.609803       -0.0841028      0.108812        0.022543        1.03357         0.411525        -0.0291283      -0.700241      
  1.0892e+011     -0.609593       -0.0739001      0.10932         0.0226777       1.03013         0.398521        -0.0385068      -0.697479      
  1.1e+011        -0.617658       -0.0607262      0.111165        0.0236705       1.03744         0.384316        -0.0337734      -0.706714      
END_DB

