! VERSION = 6.00
BEGIN_HEADER
 ICCAP_INPUTS
  Vds        V  D GROUND SMU1 0 CON        4.5
  freq       F  LIN        1    2e+009     1.1e+011   101  1.08e+009 
  Vgs        V  G GROUND SMU2 0 CON        -1.5
 ICCAP_OUTPUTS
  S_deemb    S  P1 P2 GROUND NWA B
END_HEADER

BEGIN_DB
 ICCAP_VAR Vds        4.5            
 ICCAP_VAR Vgs        -1.5           

 #freq            R:S_deemb(1,1)  I:S_deemb(1,1)  R:S_deemb(1,2)  I:S_deemb(1,2)  R:S_deemb(2,1)  I:S_deemb(2,1)  R:S_deemb(2,2)  I:S_deemb(2,2) 
  2e+009          0.999025        -0.0429114      -3.32464e-005   0.0154055       -0.00836236     0.0160501       0.996344        -0.0364582     
  3.08e+009       0.997729        -0.0669839      0.000765928     0.0249486       -0.0074187      0.0259131       0.995782        -0.0571252     
  4.16e+009       0.995694        -0.0906501      0.00174595      0.0336514       -0.00629303     0.0349515       0.994748        -0.0775137     
  5.24e+009       0.992842        -0.114752       0.00366287      0.0435713       -0.00424746     0.0451832       0.992443        -0.09831       
  6.32e+009       0.988882        -0.137688       0.0060219       0.0520858       -0.00185564     0.0540261       0.98935         -0.117999      
  7.4e+009        0.98517         -0.160682       0.00803875      0.0604484       0.000438525     0.0626773       0.9867          -0.137975      
  8.48e+009       0.980254        -0.183784       0.0110645       0.068954        0.00354617      0.0714663       0.982781        -0.158367      
  9.56e+009       0.974822        -0.206433       0.014181        0.077248        0.0068845       0.0800955       0.978541        -0.178585      
  1.064e+010      0.968999        -0.229094       0.0175022       0.0856468       0.0104052       0.0887566       0.974268        -0.198126      
  1.172e+010      0.962486        -0.250927       0.0211614       0.0936269       0.0141883       0.0970008       0.969491        -0.216948      
  1.28e+010       0.955651        -0.273806       0.0250107       0.102223        0.018282        0.10586         0.964623        -0.23622       
  1.388e+010      0.947908        -0.296675       0.030204        0.111003        0.0236314       0.114938        0.958513        -0.256267      
  1.496e+010      0.938461        -0.318534       0.0360161       0.118781        0.0296228       0.12292         0.951155        -0.276067      
  1.604e+010      0.929569        -0.339178       0.0412613       0.125703        0.0351206       0.130097        0.944364        -0.294998      
  1.712e+010      0.920339        -0.359969       0.046787        0.133306        0.0409319       0.137861        0.937411        -0.313607      
  1.82e+010       0.910201        -0.380714       0.0531131       0.140616        0.0474452       0.145401        0.92987         -0.331818      
  1.928e+010      0.898478        -0.401535       0.0609524       0.147836        0.0555921       0.152789        0.920753        -0.350227      
  2.036e+010      0.886307        -0.420642       0.0680245       0.153367        0.062915        0.158504        0.911523        -0.36753       
  2.144e+010      0.874897        -0.440923       0.0754487       0.160098        0.0705955       0.165424        0.902632        -0.385732      
  2.252e+010      0.862924        -0.459998       0.0831147       0.166125        0.0785737       0.171551        0.893917        -0.403118      
  2.36e+010       0.849103        -0.478782       0.0918438       0.171359        0.0875461       0.176957        0.88307         -0.420153      
  2.468e+010      0.835526        -0.495041       0.100655        0.175657        0.0967754       0.181305        0.872191        -0.436449      
  2.576e+010      0.823185        -0.511808       0.108961        0.180153        0.105178        0.185923        0.861466        -0.453322      
  2.684e+010      0.808072        -0.529392       0.118181        0.183786        0.114743        0.189626        0.850105        -0.469906      
  2.792e+010      0.794982        -0.545286       0.127115        0.186895        0.123947        0.192777        0.838695        -0.484979      
  2.9e+010        0.779063        -0.559681       0.13679         0.189353        0.133971        0.195272        0.826709        -0.498445      
  3.008e+010      0.766202        -0.57419        0.14503         0.1914          0.142568        0.19731         0.81566         -0.512088      
  3.116e+010      0.752499        -0.587884       0.155061        0.193799        0.153048        0.199696        0.803043        -0.526864      
  3.224e+010      0.737037        -0.602972       0.164031        0.194538        0.162062        0.200401        0.791244        -0.54189       
  3.332e+010      0.722594        -0.616447       0.172685        0.194944        0.170989        0.20102         0.77965         -0.555986      
  3.44e+010       0.703519        -0.631414       0.18214         0.195935        0.181029        0.201885        0.76469         -0.569819      
  3.548e+010      0.688527        -0.643903       0.192041        0.195883        0.190865        0.202094        0.75207         -0.58138       
  3.656e+010      0.67505         -0.655813       0.200222        0.196096        0.199185        0.201998        0.74012         -0.594226      
  3.764e+010      0.659383        -0.6707         0.209351        0.195293        0.208907        0.201188        0.726254        -0.608831      
  3.872e+010      0.642497        -0.682674       0.217494        0.194797        0.217176        0.200393        0.711253        -0.622193      
  3.98e+010       0.623063        -0.690597       0.22562         0.192923        0.225196        0.198651        0.696824        -0.62975       
  4.088e+010      0.606279        -0.700725       0.234543        0.19082         0.234481        0.196247        0.682224        -0.64099       
  4.196e+010      0.59002         -0.708935       0.242929        0.188561        0.24357         0.194156        0.667958        -0.653764      
  4.304e+010      0.573924        -0.719786       0.251453        0.187284        0.252373        0.192734        0.652629        -0.663072      
  4.412e+010      0.554563        -0.730196       0.262097        0.184926        0.263305        0.190269        0.636101        -0.673481      
  4.52e+010       0.537804        -0.734527       0.26948         0.180399        0.27021         0.18552         0.623501        -0.677816      
  4.628e+010      0.51975         -0.739634       0.276972        0.175771        0.278093        0.180971        0.608417        -0.68387       
  4.736e+010      0.505236        -0.746726       0.285306        0.170788        0.287004        0.175954        0.596413        -0.693467      
  4.844e+010      0.488338        -0.752685       0.290409        0.166597        0.292357        0.171704        0.581064        -0.700283      
  4.952e+010      0.465962        -0.758415       0.299111        0.160263        0.30147         0.165337        0.562659        -0.708047      
  5.06e+010       0.454841        -0.758327       0.305012        0.157761        0.306966        0.162168        0.555318        -0.714256      
  5.168e+010      0.437828        -0.754829       0.303647        0.150802        0.305307        0.154966        0.547733        -0.707395      
  5.276e+010      0.442147        -0.779556       0.317595        0.155822        0.319566        0.160152        0.533342        -0.744638      
  5.384e+010      0.419211        -0.783771       0.322935        0.147471        0.326126        0.151881        0.51615         -0.741616      
  5.492e+010      0.397557        -0.786738       0.328692        0.139735        0.331437        0.14398         0.495884        -0.746812      
  5.6e+010        0.381995        -0.795326       0.335728        0.138262        0.338963        0.142067        0.485766        -0.756743      
  5.708e+010      0.364836        -0.797079       0.34244         0.131859        0.34588         0.135892        0.466987        -0.75909       
  5.816e+010      0.345021        -0.796804       0.349643        0.124369        0.352373        0.126911        0.450298        -0.764382      
  5.924e+010      0.331495        -0.800557       0.350476        0.118611        0.353835        0.121808        0.440012        -0.764333      
  6.032e+010      0.313722        -0.799104       0.357125        0.11016         0.360472        0.113089        0.422261        -0.767939      
  6.14e+010       0.298369        -0.803439       0.363752        0.105221        0.368108        0.108419        0.411303        -0.77746       
  6.248e+010      0.287958        -0.799608       0.366611        0.0953493       0.3695          0.0979015       0.400786        -0.773849      
  6.356e+010      0.269189        -0.79774        0.370583        0.0874529       0.374101        0.0899997       0.380539        -0.785183      
  6.464e+010      0.266003        -0.799973       0.367495        0.0842845       0.370802        0.0879966       0.374887        -0.786689      
  6.572e+010      0.256316        -0.797228       0.365385        0.078169        0.369587        0.0799842       0.354317        -0.791463      
  6.68e+010       0.248577        -0.809836       0.373099        0.0788567       0.376504        0.0804637       0.345523        -0.79932       
  6.788e+010      0.235298        -0.817662       0.379273        0.0736485       0.382235        0.0786461       0.327489        -0.803463      
  6.896e+010      0.197592        -0.829941       0.390432        0.0680012       0.392679        0.0733637       0.319182        -0.795354      
  7.004e+010      0.184998        -0.822313       0.39451         0.058313        0.396695        0.0641348       0.290278        -0.807555      
  7.112e+010      0.168729        -0.822719       0.398066        0.0495927       0.400721        0.0541617       0.273364        -0.804473      
  7.22e+010       0.159674        -0.822142       0.4032          0.0411153       0.40595         0.0466154       0.262529        -0.815557      
  7.328e+010      0.139258        -0.816747       0.404892        0.0326964       0.40745         0.0378751       0.255954        -0.808959      
  7.436e+010      0.123166        -0.813527       0.408776        0.0234872       0.4111          0.0299365       0.240466        -0.807184      
  7.544e+010      0.107131        -0.807187       0.411901        0.0133678       0.414927        0.0189186       0.22305         -0.800603      
  7.652e+010      0.0954685       -0.811194       0.413539        0.00256361      0.4168          0.00773835      0.201646        -0.800339      
  7.76e+010       0.0889897       -0.812844       0.41236         -0.00661625     0.415566        -0.0012461      0.184137        -0.80388       
  7.868e+010      0.0702698       -0.806186       0.414391        -0.0155746      0.417609        -0.00968114     0.183222        -0.813318      
  7.976e+010      0.0537051       -0.801432       0.413171        -0.0265159      0.416444        -0.0192736      0.174977        -0.804569      
  8.084e+010      0.0460123       -0.792894       0.405894        -0.0368453      0.409148        -0.0300945      0.164511        -0.798455      
  8.192e+010      0.0401999       -0.791129       0.402564        -0.0359529      0.406117        -0.0295316      0.160944        -0.80152       
  8.3e+010        0.0373608       -0.8014         0.40134         -0.0436924      0.404879        -0.0384903      0.142535        -0.797897      
  8.408e+010      0.0247432       -0.801452       0.4             -0.0500413      0.40362         -0.0435441      0.125769        -0.800425      
  8.516e+010      0.00389908      -0.793421       0.400043        -0.0581308      0.403657        -0.0499525      0.122003        -0.811614      
  8.624e+010      -9.84731e-005   -0.79305        0.394236        -0.0596202      0.39771         -0.0533496      0.115314        -0.80306       
  8.732e+010      -0.0131156      -0.792378       0.395441        -0.0596969      0.397912        -0.0550598      0.104307        -0.811693      
  8.84e+010       -0.022724       -0.799217       0.39768         -0.0618671      0.400299        -0.0581563      0.0919454       -0.806644      
  8.948e+010      -0.0457305      -0.81107        0.407244        -0.0693626      0.410266        -0.0655379      0.0674052       -0.803862      
  9.056e+010      -0.0553532      -0.79469        0.404827        -0.0864043      0.407921        -0.0829519      0.0515527       -0.798215      
  9.164e+010      -0.0752402      -0.783845       0.401459        -0.0957936      0.404021        -0.0926682      0.0450978       -0.806499      
  9.272e+010      -0.0759321      -0.780913       0.39214         -0.102222       0.394857        -0.0981596      0.0402219       -0.794613      
  9.38e+010       -0.0978549      -0.774137       0.390321        -0.108829       0.393522        -0.105039       0.0318997       -0.810007      
  9.488e+010      -0.103384       -0.783943       0.38274         -0.111249       0.385687        -0.10713        0.040037        -0.803626      
  9.596e+010      -0.108002       -0.773759       0.380348        -0.113337       0.383316        -0.110122       0.0150376       -0.805631      
  9.704e+010      -0.116872       -0.760812       0.379457        -0.118441       0.38149         -0.117099       -0.00833173     -0.815031      
  9.812e+010      -0.124908       -0.776322       0.3772          -0.119091       0.378195        -0.119428       -0.0165045      -0.814073      
  9.92e+010       -0.148399       -0.762993       0.373562        -0.117117       0.373256        -0.120905       -0.0215362      -0.801618      
  1.0028e+011     -0.16236        -0.760848       0.379163        -0.118427       0.377793        -0.127135       -0.0258186      -0.818223      
  1.0136e+011     -0.165135       -0.758304       0.375117        -0.120935       0.373266        -0.132313       -0.0420714      -0.814587      
  1.0244e+011     -0.168464       -0.75603        0.373729        -0.126539       0.371296        -0.139323       -0.0589038      -0.804088      
  1.0352e+011     -0.18211        -0.754824       0.366178        -0.125425       0.363914        -0.137437       -0.0881835      -0.81123       
  1.046e+011      -0.186905       -0.753624       0.371127        -0.122486       0.369283        -0.133143       -0.0805084      -0.808873      
  1.0568e+011     -0.206826       -0.745369       0.378456        -0.130031       0.377334        -0.136864       -0.108755       -0.805416      
  1.0676e+011     -0.213658       -0.753021       0.379399        -0.143176       0.379599        -0.146824       -0.116167       -0.815923      
  1.0784e+011     -0.224874       -0.75149        0.376523        -0.151017       0.377717        -0.152588       -0.137708       -0.787754      
  1.0892e+011     -0.234738       -0.754729       0.371344        -0.159395       0.373325        -0.158602       -0.151638       -0.78148       
  1.1e+011        -0.261058       -0.755433       0.365196        -0.162869       0.367596        -0.161033       -0.150639       -0.782047      
END_DB

