! VERSION = 6.00
BEGIN_HEADER
 ICCAP_INPUTS
  Vds        V  D GROUND SMU1 0 CON        4.5
  freq       F  LIN        1    2e+009     1.1e+011   101  1.08e+009 
  Vgs        V  G GROUND SMU2 0 CON        0.3
 ICCAP_OUTPUTS
  S_deemb    S  P1 P2 GROUND NWA B
END_HEADER

BEGIN_DB
 ICCAP_VAR Vds        4.5            
 ICCAP_VAR Vgs        0.3            

 #freq            R:S_deemb(1,1)  I:S_deemb(1,1)  R:S_deemb(1,2)  I:S_deemb(1,2)  R:S_deemb(2,1)  I:S_deemb(2,1)  R:S_deemb(2,2)  I:S_deemb(2,2) 
  2e+009          0.99521         -0.0868837      -0.000170089    0.00765806      -2.13435        0.166725        0.908109        -0.0369478     
  3.08e+009       0.989289        -0.135909       0.000303754     0.0129815       -2.12263        0.257681        0.906388        -0.0574862     
  4.16e+009       0.980975        -0.183273       0.000805183     0.0175467       -2.10721        0.346331        0.904997        -0.0770228     
  5.24e+009       0.968859        -0.231608       0.00215321      0.0232354       -2.08569        0.437254        0.90166         -0.098184      
  6.32e+009       0.954282        -0.276654       0.00378086      0.0275934       -2.06048        0.521794        0.897556        -0.117065      
  7.4e+009        0.939017        -0.320919       0.00496377      0.0318528       -2.03188        0.605963        0.894616        -0.136369      
  8.48e+009       0.920073        -0.364247       0.0070019       0.0361634       -1.99779        0.689147        0.889814        -0.155859      
  9.56e+009       0.8992          -0.40626        0.0090197       0.0403305       -1.96031        0.770659        0.88473         -0.17553       
  1.064e+010      0.876606        -0.447181       0.0111557       0.0445623       -1.91791        0.848713        0.879752        -0.194822      
  1.172e+010      0.851991        -0.485714       0.0134805       0.0483825       -1.87254        0.923255        0.874111        -0.212869      
  1.28e+010       0.82524         -0.524431       0.0159358       0.0527325       -1.82325        0.997363        0.868158        -0.232008      
  1.388e+010      0.795326        -0.560799       0.0194003       0.0571041       -1.76665        1.069           0.859809        -0.251321      
  1.496e+010      0.763671        -0.593566       0.0232362       0.0605798       -1.70676        1.13231         0.850093        -0.269822      
  1.604e+010      0.733005        -0.62413        0.0265133       0.0633744       -1.64909        1.19193         0.842371        -0.287325      
  1.712e+010      0.700599        -0.653669       0.0298933       0.0666324       -1.58767        1.24926         0.833799        -0.30481       
  1.82e+010       0.665437        -0.680644       0.0337821       0.0695025       -1.52267        1.3053          0.823979        -0.32154       
  1.928e+010      0.628373        -0.704726       0.0387425       0.0722696       -1.45195        1.35283         0.811971        -0.337625      
  2.036e+010      0.59195         -0.726065       0.0428856       0.073695        -1.38296        1.39606         0.801389        -0.3521        
  2.144e+010      0.55507         -0.747063       0.0473169       0.0757715       -1.31243        1.43738         0.789582        -0.369082      
  2.252e+010      0.518604        -0.764443       0.0513215       0.0773914       -1.24258        1.47107         0.778399        -0.382973      
  2.36e+010       0.481078        -0.778967       0.0560795       0.0784934       -1.17112        1.5019          0.765231        -0.39621       
  2.468e+010      0.443855        -0.790005       0.0608376       0.078743        -1.09928        1.52616         0.752865        -0.408676      
  2.576e+010      0.408614        -0.799991       0.0648713       0.0792864       -1.03041        1.54698         0.741064        -0.421897      
  2.684e+010      0.372511        -0.80899        0.0691902       0.0793702       -0.96106        1.56338         0.728857        -0.43407       
  2.792e+010      0.337806        -0.814384       0.0733684       0.0787894       -0.891943       1.57541         0.716382        -0.444802      
  2.9e+010        0.302163        -0.816355       0.0775422       0.0775661       -0.821183       1.5837          0.702257        -0.453454      
  3.008e+010      0.272047        -0.818504       0.0801672       0.0767367       -0.761436       1.58735         0.691579        -0.460932      
  3.116e+010      0.23873         -0.819913       0.0847535       0.0756194       -0.694777       1.59307         0.678247        -0.472354      
  3.224e+010      0.206401        -0.820259       0.0874133       0.0738457       -0.634801       1.59283         0.667047        -0.482083      
  3.332e+010      0.176947        -0.817608       0.0892571       0.072209        -0.574899       1.58995         0.656783        -0.48981       
  3.44e+010       0.145461        -0.815586       0.0917283       0.0719407       -0.514492       1.58491         0.642765        -0.496949      
  3.548e+010      0.117638        -0.813026       0.095607        0.0701165       -0.458816       1.57864         0.631411        -0.505296      
  3.656e+010      0.0916387       -0.810832       0.0972159       0.069183        -0.409127       1.57267         0.622822        -0.513193      
  3.764e+010      0.0655923       -0.806929       0.0990143       0.0675679       -0.357026       1.5653          0.610172        -0.523267      
  3.872e+010      0.0399252       -0.803883       0.100666        0.0670774       -0.308652       1.55648         0.598798        -0.531821      
  3.98e+010       0.0150025       -0.796234       0.103109        0.0657061       -0.261354       1.54192         0.588139        -0.534569      
  4.088e+010      -0.010868       -0.7889         0.104822        0.0641657       -0.211216       1.52667         0.576607        -0.5408        
  4.196e+010      -0.0336552      -0.780021       0.107607        0.0629342       -0.162426       1.51399         0.566388        -0.551349      
  4.304e+010      -0.0577039      -0.777093       0.109262        0.0611883       -0.12206        1.50347         0.553548        -0.556578      
  4.412e+010      -0.085635       -0.767475       0.112487        0.0593813       -0.0724463      1.48986         0.538941        -0.564161      
  4.52e+010       -0.103701       -0.756901       0.113608        0.0569715       -0.0352967      1.46541         0.531588        -0.565161      
  4.628e+010      -0.123457       -0.744892       0.115217        0.0543074       0.00431356      1.44443         0.519572        -0.567131      
  4.736e+010      -0.143208       -0.736311       0.116533        0.0503692       0.038367        1.42477         0.510405        -0.573745      
  4.844e+010      -0.160689       -0.725993       0.115877        0.0494828       0.0745522       1.40573         0.500926        -0.577047      
  4.952e+010      -0.185878       -0.711648       0.117082        0.0469603       0.114906        1.38251         0.485146        -0.581355      
  5.06e+010       -0.199968       -0.698842       0.118551        0.0454577       0.141407        1.36862         0.482528        -0.587801      
  5.168e+010      -0.204865       -0.67181        0.114932        0.0436746       0.167598        1.32836         0.481346        -0.580695      
  5.276e+010      -0.210901       -0.708545       0.118403        0.0447087       0.184248        1.3455          0.466927        -0.610356      
  5.384e+010      -0.237468       -0.691009       0.119379        0.0422111       0.221218        1.31926         0.45802         -0.606769      
  5.492e+010      -0.258394       -0.674349       0.118641        0.0399113       0.256781        1.29653         0.441486        -0.608847      
  5.6e+010        -0.27656        -0.669681       0.119308        0.0403455       0.286421        1.28371         0.435303        -0.620683      
  5.708e+010      -0.292842       -0.654018       0.120975        0.0383508       0.318526        1.25934         0.421985        -0.620954      
  5.816e+010      -0.308388       -0.637955       0.122339        0.0357543       0.346363        1.23167         0.408558        -0.625848      
  5.924e+010      -0.317934       -0.627502       0.121032        0.0348641       0.365804        1.20883         0.405217        -0.625315      
  6.032e+010      -0.331774       -0.610556       0.12179         0.0313912       0.391639        1.18256         0.390045        -0.62611       
  6.14e+010       -0.346506       -0.602255       0.121469        0.0295516       0.417313        1.16671         0.383345        -0.636983      
  6.248e+010      -0.351279       -0.584864       0.120658        0.0248495       0.429599        1.13627         0.375673        -0.631191      
  6.356e+010      -0.36252        -0.572478       0.118804        0.023573        0.452768        1.11532         0.358239        -0.641951      
  6.464e+010      -0.360452       -0.567117       0.11649         0.0233974       0.457326        1.0994          0.364052        -0.641088      
  6.572e+010      -0.367509       -0.558318       0.111485        0.0247238       0.474838        1.08071         0.348622        -0.64355       
  6.68e+010       -0.378867       -0.562486       0.112633        0.026677        0.497465        1.0702          0.343429        -0.658543      
  6.788e+010      -0.396268       -0.551579       0.114012        0.0272308       0.529096        1.04502         0.327647        -0.66284       
  6.896e+010      -0.43023        -0.540708       0.117566        0.0275069       0.556397        1.02758         0.319573        -0.65482       
  7.004e+010      -0.438596       -0.523988       0.1199          0.0253925       0.577992        0.994944        0.297386        -0.669036      
  7.112e+010      -0.45109        -0.51194        0.120664        0.0229396       0.59387         0.96632         0.283963        -0.667772      
  7.22e+010       -0.45416        -0.495573       0.121656        0.0209067       0.610904        0.941431        0.276194        -0.678584      
  7.328e+010      -0.466874       -0.477861       0.120715        0.0188059       0.620631        0.918911        0.273021        -0.672808      
  7.436e+010      -0.473753       -0.462592       0.121535        0.0163446       0.63406         0.888946        0.260453        -0.67144       
  7.544e+010      -0.48246        -0.446284       0.122601        0.0132171       0.645227        0.863512        0.245515        -0.666136      
  7.652e+010      -0.490074       -0.439664       0.121402        0.00973693      0.654639        0.837           0.228718        -0.666225      
  7.76e+010       -0.491176       -0.430185       0.118251        0.0080696       0.661063        0.814859        0.217111        -0.67015       
  7.868e+010      -0.499471       -0.411461       0.117959        0.00602501      0.669646        0.790281        0.218249        -0.678259      
  7.976e+010      -0.504422       -0.398144       0.116185        0.00256912      0.672857        0.762286        0.213519        -0.669716      
  8.084e+010      -0.503932       -0.385643       0.110572        0.000230998     0.666625        0.749494        0.209566        -0.663644      
  8.192e+010      -0.508237       -0.385158       0.106536        0.00456553      0.673208        0.748404        0.212182        -0.67035       
  8.3e+010        -0.514365       -0.379988       0.10532         0.00395105      0.681117        0.72867         0.198932        -0.669855      
  8.408e+010      -0.51972        -0.367445       0.103909        0.00407564      0.688909        0.706994        0.18839         -0.674773      
  8.516e+010      -0.527036       -0.350246       0.102319        0.00374764      0.697601        0.688905        0.188062        -0.685806      
  8.624e+010      -0.532234       -0.342137       0.0990518       0.00700111      0.702345        0.677889        0.186664        -0.683138      
  8.732e+010      -0.540795       -0.333583       0.0991442       0.010351        0.716138        0.664842        0.179661        -0.696724      
  8.84e+010       -0.550039       -0.328159       0.100299        0.0127274       0.731412        0.650504        0.16821         -0.697606      
  8.948e+010      -0.565308       -0.31474        0.107071        0.0137454       0.750992        0.617445        0.142355        -0.699609      
  9.056e+010      -0.559593       -0.290778       0.106268        0.00714787      0.747762        0.592732        0.130399        -0.691825      
  9.164e+010      -0.567788       -0.274517       0.105121        0.00544693      0.74899         0.573207        0.128342        -0.700465      
  9.272e+010      -0.561641       -0.265602       0.0993597       0.0040697       0.742232        0.557835        0.129629        -0.692773      
  9.38e+010       -0.57425        -0.252081       0.0994225       0.00427294      0.750055        0.542221        0.124901        -0.710413      
  9.488e+010      -0.572284       -0.253574       0.0937976       0.00621262      0.751362        0.541167        0.139311        -0.708452      
  9.596e+010      -0.572343       -0.238397       0.0928074       0.00903333      0.760448        0.527303        0.118633        -0.71639       
  9.704e+010      -0.574115       -0.219159       0.0934983       0.0100635       0.768052        0.503352        0.0995279       -0.729508      
  9.812e+010      -0.584154       -0.221917       0.0928786       0.0139403       0.781309        0.488917        0.094446        -0.739034      
  9.92e+010       -0.589228       -0.195429       0.093113        0.0170385       0.783859        0.464022        0.0880283       -0.73406       
  1.0028e+011     -0.594171       -0.18885        0.0964275       0.0178713       0.799458        0.440316        0.0822241       -0.753827      
  1.0136e+011     -0.595137       -0.178763       0.0928517       0.0198617       0.806986        0.42425         0.0700473       -0.756821      
  1.0244e+011     -0.593014       -0.169731       0.093801        0.0202388       0.809707        0.402947        0.0551061       -0.750071      
  1.0352e+011     -0.600985       -0.155565       0.0913073       0.0264043       0.817958        0.389202        0.0308666       -0.768828      
  1.046e+011      -0.598867       -0.144436       0.0970155       0.0285138       0.823898        0.372887        0.0309027       -0.774778      
  1.0568e+011     -0.60561        -0.123585       0.101916        0.0282956       0.832864        0.348951        -0.00292029     -0.777282      
  1.0676e+011     -0.605687       -0.121035       0.102534        0.0250999       0.829015        0.326219        -0.0122296      -0.787         
  1.0784e+011     -0.606605       -0.107781       0.103504        0.0270015       0.821847        0.305089        -0.0356988      -0.761988      
  1.0892e+011     -0.606309       -0.0977795      0.104446        0.0270354       0.817854        0.296688        -0.046863       -0.756529      
  1.1e+011        -0.614957       -0.0851509      0.105974        0.0286668       0.821415        0.286673        -0.0418283      -0.763258      
END_DB

