! VERSION = 6.00
BEGIN_HEADER
 ICCAP_INPUTS
  Vds        V  D GROUND SMU1 0 CON        4.5
  freq       F  LIN        1    2e+009     1.1e+011   101  1.08e+009 
  Vgs        V  G GROUND SMU2 0 CON        -1.1
 ICCAP_OUTPUTS
  S_deemb    S  P1 P2 GROUND NWA B
END_HEADER

BEGIN_DB
 ICCAP_VAR Vds        4.5            
 ICCAP_VAR Vgs        -1.1           

 #freq            R:S_deemb(1,1)  I:S_deemb(1,1)  R:S_deemb(1,2)  I:S_deemb(1,2)  R:S_deemb(2,1)  I:S_deemb(2,1)  R:S_deemb(2,2)  I:S_deemb(2,2) 
  2e+009          0.998955        -0.0549931      4.85336e-005    0.0143004       -0.399914       0.0422678       0.963095        -0.0363458     
  3.08e+009       0.996421        -0.0871014      0.000858573     0.0232264       -0.432425       0.069145        0.962591        -0.057086      
  4.16e+009       0.992592        -0.119197       0.00185047      0.0313111       -0.45815        0.0970976       0.961668        -0.0775512     
  5.24e+009       0.986664        -0.15415        0.00380208      0.0406137       -0.509556       0.134268        0.959197        -0.0986471     
  6.32e+009       0.977886        -0.19139        0.00606919      0.0484831       -0.597479       0.184741        0.955929        -0.116835      
  7.4e+009        0.970422        -0.222339       0.00833412      0.0562121       -0.579759       0.209604        0.952928        -0.139562      
  8.48e+009       0.960557        -0.253632       0.011299        0.0639922       -0.570381       0.239448        0.948394        -0.158976      
  9.56e+009       0.959087        -0.258154       0.0143901       0.0716329       -0.321824       0.186217        0.944194        -0.178296      
  1.064e+010      0.950647        -0.28337        0.0177055       0.0794441       -0.292744       0.197           0.940512        -0.197535      
  1.172e+010      0.940433        -0.309867       0.0213518       0.0865846       -0.283909       0.215176        0.934684        -0.2161        
  1.28e+010       0.929674        -0.336586       0.0252765       0.0944476       -0.270119       0.231095        0.929715        -0.235617      
  1.388e+010      0.916698        -0.364268       0.0303138       0.102254        -0.263563       0.252643        0.922002        -0.254785      
  1.496e+010      0.902744        -0.389382       0.0361184       0.109374        -0.248286       0.26746         0.91524         -0.274644      
  1.604e+010      0.888835        -0.413751       0.0412401       0.115531        -0.238485       0.284546        0.908536        -0.292659      
  1.712e+010      0.876437        -0.435133       0.0468224       0.1221          -0.210047       0.290097        0.900466        -0.311937      
  1.82e+010       0.859631        -0.459972       0.0530842       0.128682        -0.204154       0.310487        0.893559        -0.329692      
  1.928e+010      0.842699        -0.482482       0.0604972       0.134567        -0.185046       0.322066        0.882059        -0.346854      
  2.036e+010      0.824918        -0.503428       0.0675071       0.139386        -0.169604       0.334094        0.873468        -0.363963      
  2.144e+010      0.807687        -0.525579       0.0743141       0.144737        -0.154704       0.347836        0.862708        -0.379996      
  2.252e+010      0.791449        -0.544514       0.0821508       0.149945        -0.132282       0.352526        0.854882        -0.398702      
  2.36e+010       0.771666        -0.563959       0.0904083       0.154225        -0.115638       0.364201        0.843972        -0.414735      
  2.468e+010      0.756205        -0.57784        0.0986874       0.157105        -0.0863727      0.358986        0.831319        -0.430184      
  2.576e+010      0.733808        -0.598103       0.106162        0.16083         -0.082693       0.380624        0.821206        -0.444961      
  2.684e+010      0.716334        -0.612921       0.114837        0.163156        -0.0572489      0.378261        0.808723        -0.460975      
  2.792e+010      0.69581         -0.629776       0.123056        0.165483        -0.0447795      0.38841         0.798078        -0.474596      
  2.9e+010        0.677962        -0.6411         0.132141        0.16635         -0.0190885      0.383734        0.784939        -0.488008      
  3.008e+010      0.658747        -0.655025       0.1396          0.1676          -0.00646571     0.391289        0.774236        -0.500499      
  3.116e+010      0.642375        -0.66618        0.148712        0.168666        0.017584        0.386574        0.760477        -0.514024      
  3.224e+010      0.619636        -0.680203       0.156386        0.168482        0.0294368       0.394958        0.748529        -0.527529      
  3.332e+010      0.599615        -0.691605       0.163796        0.167936        0.0456142       0.397571        0.737124        -0.540053      
  3.44e+010       0.576304        -0.703848       0.171873        0.168422        0.0633844       0.398872        0.723731        -0.553169      
  3.548e+010      0.558622        -0.713392       0.180736        0.167131        0.0826326       0.394461        0.709967        -0.563778      
  3.656e+010      0.539291        -0.723369       0.187702        0.166822        0.0965401       0.396998        0.698964        -0.57491       
  3.764e+010      0.522277        -0.733723       0.195218        0.164873        0.114811        0.390184        0.684286        -0.587963      
  3.872e+010      0.497454        -0.744034       0.201887        0.164278        0.126458        0.396831        0.671234        -0.599287      
  3.98e+010       0.480137        -0.747518       0.209142        0.161804        0.14455         0.385544        0.656713        -0.607638      
  4.088e+010      0.456727        -0.754561       0.216689        0.159102        0.15973         0.387292        0.643076        -0.61754       
  4.196e+010      0.437723        -0.759883       0.223779        0.156968        0.173709        0.38261         0.629213        -0.628382      
  4.304e+010      0.418873        -0.767134       0.230917        0.154822        0.189001        0.377766        0.615094        -0.637182      
  4.412e+010      0.397388        -0.77252        0.239551        0.151721        0.207684        0.3716          0.599023        -0.645486      
  4.52e+010       0.376787        -0.774242       0.24533         0.147614        0.218055        0.369483        0.587328        -0.650017      
  4.628e+010      0.358674        -0.774592       0.250857        0.143091        0.232062        0.35907         0.572187        -0.65492       
  4.736e+010      0.342072        -0.779234       0.257855        0.137712        0.244343        0.351168        0.560867        -0.663427      
  4.844e+010      0.321503        -0.780391       0.261342        0.133724        0.25434         0.347123        0.546962        -0.669187      
  4.952e+010      0.298235        -0.781061       0.268577        0.127161        0.269919        0.335829        0.530407        -0.676548      
  5.06e+010       0.286962        -0.778855       0.272809        0.125581        0.279172        0.32939         0.523402        -0.681578      
  5.168e+010      0.270857        -0.768025       0.27102         0.118753        0.28176         0.317933        0.51661         -0.676263      
  5.276e+010      0.272546        -0.79799        0.282652        0.122139        0.297025        0.323427        0.502258        -0.709884      
  5.384e+010      0.249191        -0.795265       0.286734        0.114838        0.308571        0.309434        0.48516         -0.707992      
  5.492e+010      0.224089        -0.793884       0.290594        0.108146        0.318357        0.300647        0.46797         -0.711831      
  5.6e+010        0.208728        -0.800281       0.296196        0.106638        0.32857         0.294243        0.457904        -0.720613      
  5.708e+010      0.188936        -0.796138       0.301002        0.100903        0.338958        0.286399        0.44068         -0.723124      
  5.816e+010      0.169067        -0.792779       0.306562        0.0932456       0.349485        0.275017        0.425389        -0.72821       
  5.924e+010      0.156546        -0.789921       0.307304        0.088492        0.354474        0.266587        0.416039        -0.729537      
  6.032e+010      0.136851        -0.785296       0.311962        0.0813612       0.36353         0.256404        0.399297        -0.732602      
  6.14e+010       0.122222        -0.786757       0.316527        0.0764031       0.372477        0.248453        0.389455        -0.739909      
  6.248e+010      0.109546        -0.779199       0.31778         0.0673382       0.376845        0.235886        0.379732        -0.736365      
  6.356e+010      0.0925339       -0.77594        0.320646        0.0608548       0.384386        0.22529         0.361117        -0.746075      
  6.464e+010      0.0921785       -0.772493       0.317387        0.0592647       0.382032        0.218037        0.35443         -0.74891       
  6.572e+010      0.0808264       -0.766332       0.314116        0.0540999       0.384131        0.209614        0.336786        -0.755571      
  6.68e+010       0.0724331       -0.779257       0.320126        0.0545553       0.393053        0.207891        0.329661        -0.761468      
  6.788e+010      -0.00251409     -0.752075       0.321449        0.047582        0.416459        0.308924        0.309129        -0.762458      
  6.896e+010      -0.0442628      -0.754051       0.329513        0.0421352       0.431804        0.305806        0.299752        -0.753435      
  7.004e+010      -0.0513454      -0.741816       0.333029        0.0341171       0.44283         0.286321        0.272154        -0.765739      
  7.112e+010      -0.0691431      -0.738004       0.334226        0.0289551       0.448564        0.273549        0.259432        -0.76035       
  7.22e+010       -0.0759066      -0.727722       0.337009        0.0224055       0.461376        0.262875        0.250067        -0.770115      
  7.328e+010      -0.0864873      -0.72158        0.336824        0.0135406       0.462626        0.236524        0.240845        -0.764295      
  7.436e+010      -0.111194       -0.707052       0.339575        0.00562704      0.471666        0.245384        0.226647        -0.762785      
  7.544e+010      -0.11423        -0.704792       0.340436        -0.00377715     0.472101        0.209991        0.20763         -0.755599      
  7.652e+010      -0.128736       -0.707232       0.341639        -0.0130273      0.471536        0.199861        0.187501        -0.756311      
  7.76e+010       -0.144582       -0.705018       0.339598        -0.0199087      0.467658        0.202446        0.172462        -0.759503      
  7.868e+010      -0.170786       -0.686032       0.339859        -0.0266167      0.47603         0.209613        0.172917        -0.767631      
  7.976e+010      -0.172256       -0.684814       0.337421        -0.0345355      0.472522        0.197596        0.167515        -0.75836       
  8.084e+010      -0.169152       -0.679581       0.328419        -0.043245       0.462971        0.168682        0.15585         -0.752534      
  8.192e+010      -0.189968       -0.667399       0.324457        -0.0436166      0.468277        0.180263        0.149557        -0.75571       
  8.3e+010        -0.193813       -0.668839       0.323614        -0.0501347      0.472948        0.160079        0.13217         -0.753537      
  8.408e+010      -0.21148        -0.656265       0.320361        -0.0528274      0.480224        0.168568        0.117978        -0.753091      
  8.516e+010      -0.23805        -0.63455        0.321094        -0.0600096      0.489932        0.179741        0.115024        -0.766998      
  8.624e+010      -0.235813       -0.634383       0.313729        -0.0587525      0.485886        0.160301        0.10979         -0.755601      
  8.732e+010      -0.247344       -0.630716       0.317281        -0.0583509      0.489712        0.155318        0.101275        -0.768373      
  8.84e+010       -0.254655       -0.636093       0.317219        -0.060571       0.491679        0.141312        0.0877631       -0.7631        
  8.948e+010      -0.272855       -0.635695       0.324535        -0.0636964      0.506856        0.123827        0.0664824       -0.759         
  9.056e+010      -0.272584       -0.622099       0.324516        -0.07838        0.498575        0.0927622       0.0520187       -0.756926      
  9.164e+010      -0.286559       -0.611368       0.320862        -0.0863501      0.493656        0.0762918       0.0448191       -0.764825      
  9.272e+010      -0.290209       -0.593729       0.31382         -0.0900592      0.497577        0.0830657       0.0431381       -0.754494      
  9.38e+010       -0.304107       -0.595611       0.310111        -0.0951202      0.487496        0.0619255       0.0342801       -0.767874      
  9.488e+010      -0.305766       -0.602979       0.30305         -0.0956576      0.48138         0.0555356       0.0434088       -0.762611      
  9.596e+010      -0.306432       -0.598343       0.300442        -0.0977582      0.473365        0.0400458       0.0179002       -0.76545       
  9.704e+010      -0.315466       -0.579124       0.299974        -0.10244        0.477283        0.0334579       -0.0054768      -0.775918      
  9.812e+010      -0.324011       -0.591996       0.298655        -0.102719       0.475954        0.024698        -0.012806       -0.776979      
  9.92e+010       -0.343028       -0.565807       0.295942        -0.0976834      0.479202        0.0242576       -0.0151463      -0.764775      
  1.0028e+011     -0.354409       -0.565926       0.300518        -0.0993262      0.481772        0.0133118       -0.0196317      -0.781776      
  1.0136e+011     -0.356614       -0.563223       0.295873        -0.100343       0.476072        0.00204208      -0.0346985      -0.778424      
  1.0244e+011     -0.359688       -0.559259       0.295717        -0.104915       0.473666        -0.00868118     -0.0511085      -0.770236      
  1.0352e+011     -0.371655       -0.550084       0.289489        -0.103719       0.472987        -0.0113394      -0.0796613      -0.779025      
  1.046e+011      -0.377757       -0.541575       0.296484        -0.0991957      0.480805        -0.00761371     -0.0697543      -0.779293      
  1.0568e+011     -0.388477       -0.532735       0.30195         -0.107537       0.483161        -0.0250526      -0.100366       -0.777786      
  1.0676e+011     -0.395808       -0.533496       0.301162        -0.116103       0.487132        -0.0320586      -0.105913       -0.786447      
  1.0784e+011     -0.40614        -0.531239       0.296811        -0.121245       0.478157        -0.0412562      -0.128698       -0.758157      
  1.0892e+011     -0.407454       -0.534362       0.294695        -0.126201       0.46844         -0.0575836      -0.140512       -0.75434       
  1.1e+011        -0.427796       -0.532731       0.290091        -0.129885       0.461818        -0.064323       -0.140926       -0.755669      
END_DB

