! VERSION = 6.00
BEGIN_HEADER
 ICCAP_INPUTS
  Vds        V  D GROUND SMU1 0 CON        4.5
  freq       F  LIN        1    2e+009     1.1e+011   101  1.08e+009 
  Vgs        V  G GROUND SMU2 0 CON        -1
 ICCAP_OUTPUTS
  S_deemb    S  P1 P2 GROUND NWA B
END_HEADER

BEGIN_DB
 ICCAP_VAR Vds        4.5            
 ICCAP_VAR Vgs        -1             

 #freq            R:S_deemb(1,1)  I:S_deemb(1,1)  R:S_deemb(1,2)  I:S_deemb(1,2)  R:S_deemb(2,1)  I:S_deemb(2,1)  R:S_deemb(2,2)  I:S_deemb(2,2) 
  2e+009          0.998455        -0.0639992      0.000333034     0.0133799       -0.821037       0.0736222       0.927035        -0.0377323     
  3.08e+009       0.995032        -0.0997937      0.00119925      0.0217647       -0.812671       0.112142        0.926044        -0.0595011     
  4.16e+009       0.990163        -0.136313       0.00223674      0.0293241       -0.833746       0.156074        0.924716        -0.0806898     
  5.24e+009       0.98314         -0.172754       0.00424873      0.0379902       -0.830736       0.197741        0.921487        -0.102556      
  6.32e+009       0.97405         -0.207017       0.00664978      0.0453446       -0.824411       0.239312        0.917524        -0.122572      
  7.4e+009        0.965396        -0.239708       0.00879534      0.0524784       -0.79601        0.270768        0.913931        -0.143455      
  8.48e+009       0.95365         -0.273463       0.0119309       0.0596211       -0.786855       0.311716        0.908768        -0.164131      
  9.56e+009       0.941182        -0.30553        0.0151761       0.0666051       -0.764984       0.347171        0.903251        -0.184677      
  1.064e+010      0.928081        -0.337272       0.0185888       0.0736334       -0.744775       0.378347        0.89821         -0.204599      
  1.172e+010      0.913194        -0.367893       0.0223309       0.0801363       -0.726587       0.413012        0.89172         -0.223569      
  1.28e+010       0.897424        -0.399048       0.0263452       0.0871328       -0.705175       0.444628        0.885282        -0.243441      
  1.388e+010      0.878743        -0.429735       0.0314707       0.0941653       -0.685381       0.481934        0.876625        -0.262824      
  1.496e+010      0.859323        -0.457574       0.0372229       0.10022         -0.657228       0.5089          0.8676          -0.282583      
  1.604e+010      0.840021        -0.484101       0.0423877       0.105471        -0.633498       0.538069        0.859536        -0.300838      
  1.712e+010      0.820754        -0.509466       0.0478691       0.111097        -0.599787       0.559553        0.850086        -0.319271      
  1.82e+010       0.798397        -0.534744       0.0540245       0.116466        -0.574946       0.588243        0.840822        -0.336926      
  1.928e+010      0.774394        -0.558891       0.061248        0.12138         -0.545071       0.61197         0.828454        -0.3535        
  2.036e+010      0.750523        -0.580016       0.067965        0.124976        -0.513084       0.632756        0.817905        -0.369588      
  2.144e+010      0.72683         -0.602095       0.0747444       0.129295        -0.483012       0.654278        0.806113        -0.385945      
  2.252e+010      0.703437        -0.621883       0.081759        0.132964        -0.44998        0.667964        0.795468        -0.402465      
  2.36e+010       0.677678        -0.639598       0.0895051       0.135904        -0.416196       0.685777        0.782441        -0.417225      
  2.468e+010      0.653616        -0.65488        0.0971161       0.13779         -0.381512       0.691876        0.769174        -0.430978      
  2.576e+010      0.627617        -0.670894       0.104179        0.140091        -0.35516        0.711566        0.757387        -0.445195      
  2.684e+010      0.60314         -0.684964       0.111845        0.141334        -0.319964       0.716056        0.744088        -0.459124      
  2.792e+010      0.577844        -0.698515       0.119308        0.142275        -0.29155        0.726678        0.731644        -0.471418      
  2.9e+010        0.552207        -0.708233       0.126978        0.142037        -0.255979       0.73005         0.717218        -0.482044      
  3.008e+010      0.528683        -0.718386       0.13307         0.142249        -0.229157       0.737306        0.705602        -0.492044      
  3.116e+010      0.504359        -0.727444       0.141072        0.14227         -0.195405       0.739763        0.691085        -0.504075      
  3.224e+010      0.477968        -0.736642       0.147558        0.141025        -0.168298       0.746776        0.678442        -0.515493      
  3.332e+010      0.454177        -0.743201       0.153382        0.139557        -0.137798       0.748376        0.666468        -0.525438      
  3.44e+010       0.426765        -0.750591       0.159711        0.139289        -0.107208       0.749776        0.651856        -0.535154      
  3.548e+010      0.404347        -0.756208       0.167121        0.1373          -0.0776443      0.746915        0.6386          -0.543706      
  3.656e+010      0.382486        -0.761572       0.172482        0.136274        -0.0514504      0.746839        0.627336        -0.552803      
  3.764e+010      0.359676        -0.767651       0.178239        0.133937        -0.024551       0.743352        0.613145        -0.563714      
  3.872e+010      0.335526        -0.772325       0.183596        0.132947        0.00138648      0.743257        0.599997        -0.572985      
  3.98e+010       0.313537        -0.772245       0.188941        0.13095         0.0274804       0.734154        0.586637        -0.577871      
  4.088e+010      0.289082        -0.773123       0.194269        0.127589        0.0553315       0.731413        0.573213        -0.584829      
  4.196e+010      0.267775        -0.773788       0.200219        0.125043        0.0786836       0.724462        0.559999        -0.595164      
  4.304e+010      0.247052        -0.776722       0.205572        0.123159        0.103465        0.716252        0.546794        -0.601578      
  4.412e+010      0.221646        -0.77634        0.212388        0.119833        0.132292        0.710678        0.530589        -0.607694      
  4.52e+010       0.202262        -0.773249       0.21635         0.115824        0.151662        0.701118        0.520384        -0.60959       
  4.628e+010      0.182337        -0.768845       0.220335        0.111852        0.173184        0.68875         0.506918        -0.612666      
  4.736e+010      0.164174        -0.768459       0.225349        0.106268        0.192458        0.678188        0.496116        -0.619714      
  4.844e+010      0.144732        -0.764946       0.227302        0.103367        0.211091        0.668648        0.483685        -0.623358      
  4.952e+010      0.119368        -0.759288       0.232282        0.0982078       0.234703        0.655973        0.467393        -0.627736      
  5.06e+010       0.107072        -0.75342        0.235929        0.0961354       0.249617        0.646357        0.46215         -0.632817      
  5.168e+010      0.0953309       -0.736258       0.233097        0.0909771       0.259967        0.626891        0.4581          -0.62652       
  5.276e+010      0.09217         -0.768032       0.242027        0.0925067       0.277833        0.636041        0.441435        -0.656791      
  5.384e+010      0.0674606       -0.759398       0.244934        0.0864658       0.295991        0.619029        0.428748        -0.652694      
  5.492e+010      0.0438373       -0.751676       0.246876        0.0816749       0.31566         0.605641        0.411613        -0.654658      
  5.6e+010        0.0274707       -0.75338        0.250769        0.0799349       0.33153         0.597553        0.403106        -0.663656      
  5.708e+010      0.00862631      -0.744071       0.254105        0.0757659       0.349462        0.583437        0.38789         -0.664002      
  5.816e+010      -0.00971503     -0.735729       0.258142        0.0694542       0.364957        0.5675          0.374073        -0.667288      
  5.924e+010      -0.0201628      -0.729553       0.257901        0.0660901       0.375163        0.555181        0.366753        -0.66704       
  6.032e+010      -0.0386247      -0.720075       0.260986        0.0603732       0.389488        0.538975        0.351259        -0.668107      
  6.14e+010       -0.0533926      -0.717995       0.264575        0.055674        0.404437        0.528129        0.342725        -0.675952      
  6.248e+010      -0.062432       -0.705865       0.264271        0.048322        0.410892        0.508357        0.335088        -0.671692      
  6.356e+010      -0.0777375      -0.698879       0.265417        0.0432416       0.424279        0.496091        0.316955        -0.680405      
  6.464e+010      -0.0769552      -0.69418        0.262325        0.0426763       0.425118        0.486053        0.316204        -0.680758      
  6.572e+010      -0.0868981      -0.686461       0.260137        0.0398768       0.433283        0.473869        0.30061         -0.684505      
  6.68e+010       -0.0957811      -0.69516        0.263564        0.0400508       0.444293        0.467373        0.294123        -0.692713      
  6.788e+010      -0.126868       -0.685433       0.265023        0.0357032       0.461798        0.502368        0.275642        -0.694993      
  6.896e+010      -0.165122       -0.681987       0.271685        0.0320786       0.481423        0.494644        0.267134        -0.685593      
  7.004e+010      -0.171262       -0.668883       0.274528        0.0263231       0.494419        0.470492        0.243139        -0.69725       
  7.112e+010      -0.18802        -0.661837       0.275921        0.0208032       0.502848        0.455304        0.229933        -0.693735      
  7.22e+010       -0.1921         -0.648619       0.278645        0.0159928       0.518603        0.439295        0.222503        -0.703829      
  7.328e+010      -0.203122       -0.63972        0.278178        0.0105753       0.521498        0.412728        0.217285        -0.697155      
  7.436e+010      -0.218876       -0.627835       0.280125        0.00432448      0.528997        0.407935        0.204372        -0.695101      
  7.544e+010      -0.225742       -0.621083       0.281707        -0.00258548     0.53133         0.376339        0.188757        -0.68887       
  7.652e+010      -0.23854        -0.623036       0.28208         -0.010018       0.529957        0.363105        0.170281        -0.689216      
  7.76e+010       -0.250762       -0.6208         0.279457        -0.0158313      0.524983        0.360066        0.155953        -0.692115      
  7.868e+010      -0.270675       -0.604464       0.279278        -0.0215061      0.531299        0.358835        0.156735        -0.70011       
  7.976e+010      -0.284162       -0.588212       0.277006        -0.0281547      0.538196        0.354075        0.152043        -0.690936      
  8.084e+010      -0.282625       -0.578614       0.270077        -0.034219       0.532105        0.329293        0.144142        -0.685954      
  8.192e+010      -0.289416       -0.577666       0.266733        -0.0326052      0.532236        0.329878        0.140974        -0.689618      
  8.3e+010        -0.292054       -0.576517       0.265558        -0.0366038      0.539263        0.308537        0.126364        -0.68722       
  8.408e+010      -0.302698       -0.566679       0.263484        -0.0391665      0.545551        0.30755         0.113059        -0.688683      
  8.516e+010      -0.323172       -0.549362       0.262623        -0.0438757      0.55202         0.310198        0.111429        -0.700061      
  8.624e+010      -0.32289        -0.543092       0.257578        -0.0426226      0.554077        0.294082        0.107298        -0.691685      
  8.732e+010      -0.333099       -0.540528       0.259382        -0.041741       0.55827         0.284222        0.0995803       -0.703163      
  8.84e+010       -0.342525       -0.540145       0.260012        -0.0423106      0.565186        0.27238         0.0875285       -0.699234      
  8.948e+010      -0.357249       -0.534189       0.26678         -0.0452651      0.583544        0.249673        0.0662699       -0.696826      
  9.056e+010      -0.357362       -0.517153       0.265474        -0.0565358      0.576384        0.220704        0.05369         -0.692468      
  9.164e+010      -0.370852       -0.503021       0.263115        -0.0621095      0.574476        0.206341        0.0491272       -0.70036       
  9.272e+010      -0.368695       -0.490927       0.256174        -0.0653908      0.575474        0.204463        0.0479114       -0.690544      
  9.38e+010       -0.383996       -0.487924       0.254646        -0.0688894      0.569107        0.186224        0.0408737       -0.705625      
  9.488e+010      -0.38334        -0.49158        0.248408        -0.0687856      0.567506        0.178972        0.0510092       -0.7006        
  9.596e+010      -0.385852       -0.481488       0.246613        -0.0692613      0.564884        0.165478        0.0280974       -0.704136      
  9.704e+010      -0.392406       -0.463889       0.246536        -0.0718299      0.5686          0.154463        0.00739337      -0.714965      
  9.812e+010      -0.402948       -0.472021       0.245316        -0.0708218      0.571933        0.145958        0.00201454      -0.716857      
  9.92e+010       -0.415817       -0.447422       0.243327        -0.0673666      0.574739        0.137617        -0.00162371     -0.706587      
  1.0028e+011     -0.425141       -0.447497       0.247473        -0.0685954      0.577531        0.122374        -0.00558321     -0.723805      
  1.0136e+011     -0.427709       -0.440189       0.243346        -0.0691478      0.57731         0.110909        -0.0192255      -0.721453      
  1.0244e+011     -0.427713       -0.435216       0.243271        -0.0718604      0.576112        0.0959219       -0.033637       -0.71348       
  1.0352e+011     -0.440091       -0.42398        0.238283        -0.0690636      0.578354        0.0921794       -0.0599348      -0.723828      
  1.046e+011      -0.44419        -0.415434       0.243366        -0.0666822      0.584208        0.0906805       -0.0523784      -0.724545      
  1.0568e+011     -0.453593       -0.399764       0.248274        -0.0714314      0.590386        0.0719365       -0.0806856      -0.722611      
  1.0676e+011     -0.457786       -0.402708       0.248018        -0.0792489      0.59083         0.0602375       -0.0864767      -0.732659      
  1.0784e+011     -0.466215       -0.395431       0.245645        -0.0821156      0.583568        0.0498123       -0.107532       -0.706188      
  1.0892e+011     -0.466402       -0.390225       0.243419        -0.0853355      0.578487        0.0341625       -0.119187       -0.702466      
  1.1e+011        -0.483166       -0.385734       0.241525        -0.0868586      0.574335        0.0266392       -0.117615       -0.705049      
END_DB

