! VERSION = 6.00
BEGIN_HEADER
 ICCAP_INPUTS
  Vds        V  D GROUND SMU1 0 CON        4.5
  freq       F  LIN        1    2e+009     1.1e+011   101  1.08e+009 
  Vgs        V  G GROUND SMU2 0 CON        0.2
 ICCAP_OUTPUTS
  S_deemb    S  P1 P2 GROUND NWA B
END_HEADER

BEGIN_DB
 ICCAP_VAR Vds        4.5            
 ICCAP_VAR Vgs        0.2            

 #freq            R:S_deemb(1,1)  I:S_deemb(1,1)  R:S_deemb(1,2)  I:S_deemb(1,2)  R:S_deemb(2,1)  I:S_deemb(2,1)  R:S_deemb(2,2)  I:S_deemb(2,2) 
  2e+009          0.994096        -0.0878261      0.000132904     0.0077647       -2.38561        0.182354        0.901175        -0.0366491     
  3.08e+009       0.988127        -0.137492       0.000612309     0.0131885       -2.37362        0.285142        0.899601        -0.0583057     
  4.16e+009       0.9796          -0.185389       0.0011419       0.0178393       -2.35705        0.384876        0.898198        -0.0786341     
  5.24e+009       0.967157        -0.234393       0.00254374      0.0235672       -2.33299        0.487075        0.894603        -0.100656      
  6.32e+009       0.952259        -0.279886       0.0042186       0.0280112       -2.30391        0.581693        0.890287        -0.120181      
  7.4e+009        0.936717        -0.324616       0.00547094      0.0323092       -2.27306        0.676449        0.887091        -0.140096      
  8.48e+009       0.917288        -0.368374       0.0075507       0.0366733       -2.23425        0.769538        0.881815        -0.160273      
  9.56e+009       0.895975        -0.410822       0.00967279      0.040876        -2.19244        0.861063        0.876447        -0.180458      
  1.064e+010      0.872925        -0.452157       0.0118478       0.0451587       -2.14463        0.948478        0.870974        -0.200238      
  1.172e+010      0.84783         -0.491059       0.0142313       0.0490034       -2.09381        1.03225         0.864837        -0.218752      
  1.28e+010       0.820371        -0.530096       0.0167731       0.0533536       -2.03832        1.11545         0.858249        -0.238466      
  1.388e+010      0.78971         -0.566719       0.0203565       0.0577627       -1.97374        1.19521         0.849057        -0.258326      
  1.496e+010      0.757345        -0.599518       0.0242549       0.0611938       -1.90625        1.26577         0.838623        -0.277025      
  1.604e+010      0.725977        -0.630194       0.027627        0.063963        -1.8412         1.33224         0.830107        -0.294735      
  1.712e+010      0.692745        -0.659836       0.0311355       0.0672169       -1.77207        1.39693         0.820714        -0.312572      
  1.82e+010       0.656779        -0.686678       0.0351166       0.0700378       -1.69834        1.45844         0.810027        -0.329484      
  1.928e+010      0.618976        -0.710452       0.0401274       0.0727326       -1.61846        1.5107          0.796985        -0.3456        
  2.036e+010      0.581803        -0.731542       0.0443303       0.0741275       -1.54115        1.55881         0.785649        -0.360043      
  2.144e+010      0.544007        -0.752155       0.0488121       0.0760974       -1.46159        1.60411         0.772798        -0.376839      
  2.252e+010      0.50688         -0.769065       0.0528889       0.0775875       -1.38267        1.64118         0.760757        -0.390498      
  2.36e+010       0.468693        -0.782982       0.0576558       0.0786098       -1.3028         1.67424         0.746789        -0.403256      
  2.468e+010      0.430899        -0.793402       0.0624188       0.0787888       -1.22219        1.70073         0.733455        -0.415445      
  2.576e+010      0.395244        -0.802635       0.0665034       0.0792668       -1.14453        1.7226          0.720821        -0.428392      
  2.684e+010      0.358647        -0.811051       0.0708626       0.0792228       -1.06692        1.73981         0.707913        -0.439729      
  2.792e+010      0.323756        -0.815432       0.0749279       0.0785325       -0.989736       1.75196         0.694707        -0.44993       
  2.9e+010        0.287715        -0.816551       0.0789713       0.0773238       -0.910822       1.75972         0.680074        -0.458003      
  3.008e+010      0.257701        -0.818017       0.0816272       0.0764287       -0.844278       1.76301         0.668856        -0.464786      
  3.116e+010      0.224141        -0.818407       0.0861673       0.0751981       -0.770122       1.76786         0.654698        -0.475428      
  3.224e+010      0.19202         -0.818015       0.0888443       0.0733952       -0.703397       1.76624         0.64299         -0.484133      
  3.332e+010      0.163009        -0.814473       0.0907332       0.0717276       -0.637488       1.76129         0.632407        -0.491154      
  3.44e+010       0.131917        -0.811852       0.0930322       0.0714219       -0.570872       1.7546          0.618476        -0.498393      
  3.548e+010      0.104093        -0.808542       0.0967907       0.0694587       -0.509891       1.74654         0.606381        -0.505312      
  3.656e+010      0.078463        -0.805949       0.0986078       0.0686436       -0.455615       1.73876         0.597485        -0.512305      
  3.764e+010      0.0530108       -0.801366       0.100457        0.0668893       -0.399037       1.72985         0.584787        -0.52123       
  3.872e+010      0.0276034       -0.798406       0.102039        0.0664879       -0.346358       1.71911         0.572962        -0.528976      
  3.98e+010       0.00248229      -0.789709       0.104258        0.0649021       -0.293817       1.70296         0.56277         -0.531234      
  4.088e+010      -0.0220843      -0.782546       0.106169        0.0630809       -0.239579       1.6855          0.550994        -0.536749      
  4.196e+010      -0.044536       -0.773541       0.108743        0.0619244       -0.186637       1.67104         0.540289        -0.546161      
  4.304e+010      -0.0687296      -0.770314       0.11056         0.0607494       -0.141955       1.65896         0.527638        -0.550911      
  4.412e+010      -0.0963448      -0.759962       0.1135          0.0586565       -0.0880268      1.64308         0.513227        -0.557414      
  4.52e+010       -0.114123       -0.748975       0.114833        0.0561504       -0.0475047      1.61623         0.505571        -0.557773      
  4.628e+010      -0.133206       -0.737044       0.115988        0.0536492       -0.00443512     1.59257         0.49409         -0.559306      
  4.736e+010      -0.152427       -0.727827       0.11711         0.0493626       0.0332878       1.5711          0.484282        -0.56485       
  4.844e+010      -0.169608       -0.717608       0.116855        0.0489675       0.0714495       1.54988         0.475524        -0.567737      
  4.952e+010      -0.194427       -0.703104       0.117904        0.0465455       0.114959        1.52479         0.460344        -0.571049      
  5.06e+010       -0.207816       -0.690157       0.119802        0.0451559       0.143665        1.50952         0.457632        -0.576689      
  5.168e+010      -0.21159        -0.663455       0.115747        0.0433193       0.172438        1.46589         0.456907        -0.569727      
  5.276e+010      -0.218969       -0.699943       0.11958         0.0438051       0.191794        1.48417         0.441779        -0.597865      
  5.384e+010      -0.244146       -0.682238       0.120444        0.0413011       0.231352        1.4548          0.432699        -0.593369      
  5.492e+010      -0.265358       -0.665739       0.119462        0.0392268       0.270409        1.43102         0.417579        -0.595657      
  5.6e+010        -0.282286       -0.661117       0.119893        0.039356        0.301619        1.41734         0.411927        -0.606519      
  5.708e+010      -0.298944       -0.645424       0.122069        0.0378524       0.337229        1.38965         0.398207        -0.606448      
  5.816e+010      -0.31456        -0.628868       0.123556        0.0349822       0.367413        1.35943         0.385532        -0.609865      
  5.924e+010      -0.3225         -0.618917       0.121683        0.0334547       0.387203        1.33464         0.382384        -0.609782      
  6.032e+010      -0.336306       -0.602073       0.122417        0.031109        0.415877        1.3061          0.367606        -0.609449      
  6.14e+010       -0.350484       -0.593464       0.122471        0.0293347       0.443216        1.28881         0.361554        -0.618898      
  6.248e+010      -0.355073       -0.576083       0.121662        0.0240537       0.457355        1.25648         0.353626        -0.612756      
  6.356e+010      -0.365388       -0.564325       0.119934        0.0226193       0.48157         1.23389         0.338421        -0.622137      
  6.464e+010      -0.36328        -0.559203       0.117121        0.0230858       0.488148        1.21757         0.34241         -0.622749      
  6.572e+010      -0.370002       -0.550758       0.112951        0.0240273       0.507345        1.19647         0.329797        -0.62536       
  6.68e+010       -0.381628       -0.55393        0.1145          0.0256667       0.531583        1.18631         0.324093        -0.638539      
  6.788e+010      -0.399577       -0.544335       0.114775        0.0264844       0.566241        1.15627         0.309757        -0.64167       
  6.896e+010      -0.433848       -0.533207       0.118728        0.02674         0.595729        1.13754         0.302036        -0.633652      
  7.004e+010      -0.442354       -0.516142       0.120601        0.0247283       0.619104        1.10248         0.28108         -0.646922      
  7.112e+010      -0.454114       -0.504198       0.121862        0.0224265       0.636175        1.07175         0.268294        -0.645632      
  7.22e+010       -0.456808       -0.488184       0.122786        0.020132        0.654536        1.04511         0.261239        -0.655907      
  7.328e+010      -0.46954        -0.470036       0.121548        0.0182283       0.665646        1.0211          0.258557        -0.64967       
  7.436e+010      -0.476409       -0.454978       0.122323        0.0158335       0.680519        0.988582        0.246743        -0.647757      
  7.544e+010      -0.484592       -0.438631       0.123459        0.0125985       0.692958        0.96119         0.23248         -0.642196      
  7.652e+010      -0.49221        -0.432183       0.122208        0.00913459      0.703369        0.932688        0.216608        -0.642115      
  7.76e+010       -0.49284        -0.422921       0.119034        0.00764947      0.710656        0.908777        0.205943        -0.645631      
  7.868e+010      -0.500916       -0.404284       0.118831        0.00572192      0.719617        0.882414        0.207968        -0.653638      
  7.976e+010      -0.505667       -0.391115       0.116934        0.00234313      0.723095        0.852556        0.203971        -0.6445        
  8.084e+010      -0.504447       -0.378961       0.111594        2.17887e-005    0.717223        0.840081        0.201091        -0.638558      
  8.192e+010      -0.509078       -0.378952       0.107621        0.0039182       0.725708        0.83902         0.203802        -0.64555       
  8.3e+010        -0.515057       -0.374174       0.106552        0.00341279      0.734779        0.818827        0.191888        -0.645083      
  8.408e+010      -0.520452       -0.361778       0.105182        0.00344565      0.743598        0.795171        0.182189        -0.65057       
  8.516e+010      -0.527657       -0.344371       0.103475        0.00319638      0.753744        0.775195        0.182668        -0.660578      
  8.624e+010      -0.532877       -0.337071       0.100307        0.00620048      0.759774        0.763981        0.181715        -0.658798      
  8.732e+010      -0.541948       -0.328422       0.100511        0.00945277      0.776303        0.749992        0.17502         -0.672636      
  8.84e+010       -0.551301       -0.323499       0.101525        0.011854        0.793616        0.734551        0.164333        -0.673496      
  8.948e+010      -0.566778       -0.30937        0.108183        0.0126949       0.815088        0.697934        0.138977        -0.675502      
  9.056e+010      -0.559976       -0.285963       0.107356        0.00629218      0.812578        0.672332        0.128231        -0.667889      
  9.164e+010      -0.568441       -0.269525       0.106195        0.00449364      0.814546        0.651461        0.126909        -0.676401      
  9.272e+010      -0.562119       -0.26103        0.100567        0.00328205      0.808306        0.63504         0.129236        -0.669236      
  9.38e+010       -0.574783       -0.247999       0.10058         0.00340988      0.818087        0.618926        0.125229        -0.68682       
  9.488e+010      -0.572904       -0.249873       0.0950578       0.00525003      0.821361        0.61829         0.139896        -0.685556      
  9.596e+010      -0.573221       -0.235031       0.0940518       0.00792247      0.832388        0.603088        0.120004        -0.693774      
  9.704e+010      -0.575134       -0.21555        0.0946182       0.0089732       0.841837        0.576569        0.101798        -0.707424      
  9.812e+010      -0.58543        -0.218755       0.0939031       0.0128358       0.85791         0.560655        0.0975953       -0.717539      
  9.92e+010       -0.590589       -0.192156       0.0941244       0.0159598       0.861982        0.532654        0.0908632       -0.713542      
  1.0028e+011     -0.595526       -0.185944       0.0973632       0.0167869       0.880008        0.506513        0.0855502       -0.733171      
  1.0136e+011     -0.597021       -0.175827       0.093739        0.018748        0.89048         0.489267        0.0739361       -0.736667      
  1.0244e+011     -0.594709       -0.166982       0.0947615       0.0190113       0.894243        0.465702        0.0599641       -0.730727      
  1.0352e+011     -0.603074       -0.153004       0.0920967       0.0251395       0.905246        0.449245        0.0363293       -0.750517      
  1.046e+011      -0.601365       -0.141499       0.0977534       0.0271313       0.912539        0.429826        0.035948        -0.757186      
  1.0568e+011     -0.608326       -0.12034        0.102392        0.0269714       0.922482        0.402686        0.00276958      -0.759566      
  1.0676e+011     -0.608401       -0.11748        0.103079        0.0239864       0.91901         0.377755        -0.00646259     -0.769134      
  1.0784e+011     -0.609158       -0.104311       0.104084        0.0259196       0.911845        0.353864        -0.0287137      -0.744711      
  1.0892e+011     -0.609119       -0.0943388      0.104817        0.0259614       0.908824        0.343897        -0.0393637      -0.740417      
  1.1e+011        -0.617765       -0.0817614      0.106343        0.0273388       0.913844        0.332522        -0.0341277      -0.748315      
END_DB

