! VERSION = 6.00
BEGIN_HEADER
 ICCAP_INPUTS
  Vds        V  D GROUND SMU1 0 CON        4.5
  freq       F  LIN        1    2e+009     1.1e+011   101  1.08e+009 
  Vgs        V  G GROUND SMU2 0 CON        -0.1
 ICCAP_OUTPUTS
  S_deemb    S  P1 P2 GROUND NWA B
END_HEADER

BEGIN_DB
 ICCAP_VAR Vds        4.5            
 ICCAP_VAR Vgs        -0.1           

 #freq            R:S_deemb(1,1)  I:S_deemb(1,1)  R:S_deemb(1,2)  I:S_deemb(1,2)  R:S_deemb(2,1)  I:S_deemb(2,1)  R:S_deemb(2,2)  I:S_deemb(2,2) 
  2e+009          0.989647        -0.0933326      0.00233255      0.00833761      -2.94895        0.236078        0.865953        -0.0323042     
  3.08e+009       0.982834        -0.146053       0.00286813      0.0139836       -2.91747        0.366554        0.86551         -0.0575089     
  4.16e+009       0.973247        -0.196733       0.00351807      0.0189063       -2.89231        0.495405        0.864253        -0.0802893     
  5.24e+009       0.95915         -0.24842        0.00504083      0.0248871       -2.85445        0.623404        0.860273        -0.104602      
  6.32e+009       0.942379        -0.296057       0.00688495      0.0295909       -2.8135         0.741957        0.855401        -0.125916      
  7.4e+009        0.923212        -0.346032       0.00835267      0.0341464       -2.80973        0.883424        0.851494        -0.147424      
  8.48e+009       0.900755        -0.39262        0.010705        0.0387045       -2.76178        1.00686         0.845069        -0.169229      
  9.56e+009       0.876288        -0.437029       0.0130923       0.0430927       -2.70406        1.12439         0.838534        -0.190663      
  1.064e+010      0.84977         -0.480233       0.0156195       0.0474751       -2.638          1.23683         0.831631        -0.211709      
  1.172e+010      0.821117        -0.520165       0.0183514       0.0514536       -2.5665         1.3428          0.824099        -0.231438      
  1.28e+010       0.789803        -0.560419       0.0212497       0.0558553       -2.48863        1.44828         0.815669        -0.252139      
  1.388e+010      0.755372        -0.597278       0.0252405       0.0601785       -2.39855        1.54582         0.804242        -0.273066      
  1.496e+010      0.718897        -0.630014       0.0294661       0.0635571       -2.30688        1.63326         0.791685        -0.291865      
  1.604e+010      0.683775        -0.660271       0.0331862       0.0662782       -2.21777        1.71329         0.781278        -0.309648      
  1.712e+010      0.645835        -0.689264       0.0370626       0.0693249       -2.12146        1.7926          0.76976         -0.327778      
  1.82e+010       0.606384        -0.714601       0.0413485       0.0719744       -2.02265        1.86407         0.75698         -0.34441       
  1.928e+010      0.565144        -0.736253       0.0466175       0.0743475       -1.91534        1.92192         0.74127         -0.360114      
  2.036e+010      0.524566        -0.755304       0.0511114       0.0754829       -1.81301        1.97772         0.728049        -0.373903      
  2.144e+010      0.483677        -0.773168       0.0558191       0.0770937       -1.7071         2.02448         0.712619        -0.389653      
  2.252e+010      0.442867        -0.787318       0.0600789       0.0782482       -1.60142        2.06518         0.69852         -0.402026      
  2.36e+010       0.402009        -0.798042       0.0648752       0.0789299       -1.49916        2.09806         0.682877        -0.413342      
  2.468e+010      0.361841        -0.804883       0.0696647       0.0786994       -1.39287        2.12285         0.667515        -0.423904      
  2.576e+010      0.325781        -0.810408       0.0737738       0.0788809       -1.29458        2.14023         0.653156        -0.435518      
  2.684e+010      0.287265        -0.815873       0.0780692       0.0784869       -1.19662        2.15275         0.638987        -0.444459      
  2.792e+010      0.251838        -0.816256       0.0820587       0.0775726       -1.09932        2.15922         0.624614        -0.452893      
  2.9e+010        0.214257        -0.812611       0.0860273       0.0759221       -1.00037        2.15881         0.608729        -0.458982      
  3.008e+010      0.184635        -0.811283       0.0884769       0.0749202       -0.917916       2.15484         0.596654        -0.463953      
  3.116e+010      0.152003        -0.808031       0.0929057       0.073474        -0.826461       2.15135         0.58106         -0.472167      
  3.224e+010      0.119856        -0.804675       0.0951585       0.0714426       -0.745176       2.14107         0.569158        -0.478223      
  3.332e+010      0.0924146       -0.797801       0.0969054       0.069811        -0.666884       2.12591         0.558045        -0.483594      
  3.44e+010       0.0607235       -0.792196       0.0993008       0.0694635       -0.588944       2.11082         0.544814        -0.48973       
  3.548e+010      0.0344999       -0.786247       0.102972        0.0671818       -0.516777       2.09302         0.531711        -0.49395       
  3.656e+010      0.0108155       -0.78078        0.104385        0.0662557       -0.452502       2.07754         0.522311        -0.498787      
  3.764e+010      -0.013246       -0.774794       0.106107        0.0646924       -0.387277       2.05907         0.509879        -0.505105      
  3.872e+010      -0.0367689      -0.770305       0.107547        0.0640807       -0.327541       2.04153         0.498342        -0.511233      
  3.98e+010       -0.0625757      -0.759272       0.109904        0.0629112       -0.265246       2.01733         0.487899        -0.512736      
  4.088e+010      -0.0853305      -0.749592       0.111424        0.0607915       -0.203412       1.99221         0.47664         -0.517368      
  4.196e+010      -0.105709       -0.738742       0.114006        0.0596204       -0.144231       1.96866         0.465809        -0.523853      
  4.304e+010      -0.128147       -0.73409        0.115741        0.0580902       -0.0930167      1.94916         0.453738        -0.526123      
  4.412e+010      -0.153829       -0.72254        0.118551        0.0559639       -0.0316871      1.92546         0.440777        -0.530469      
  4.52e+010       -0.170715       -0.709743       0.119573        0.0536903       0.0133247       1.89123         0.432367        -0.529695      
  4.628e+010      -0.188317       -0.696258       0.120945        0.0510637       0.0598774       1.85858         0.420951        -0.530143      
  4.736e+010      -0.206555       -0.684216       0.121743        0.0467768       0.103949        1.83036         0.411709        -0.532488      
  4.844e+010      -0.220515       -0.675341       0.121337        0.0464917       0.143742        1.80216         0.404027        -0.534846      
  4.952e+010      -0.241888       -0.659343       0.122622        0.0440659       0.19242         1.76906         0.391549        -0.536238      
  5.06e+010       -0.256499       -0.645123       0.1241          0.0430051       0.223787        1.75087         0.388034        -0.540392      
  5.168e+010      -0.25724        -0.618425       0.120364        0.0414663       0.255598        1.69861         0.387586        -0.534262      
  5.276e+010      -0.266147       -0.653965       0.123993        0.0415626       0.27965         1.7137          0.372425        -0.557693      
  5.384e+010      -0.290794       -0.636635       0.124699        0.039324        0.323561        1.6773          0.36296         -0.553073      
  5.492e+010      -0.306096       -0.618606       0.124012        0.0373862       0.363684        1.64695         0.351519        -0.554426      
  5.6e+010        -0.326403       -0.611881       0.124904        0.0370976       0.399494        1.62644         0.344751        -0.560818      
  5.708e+010      -0.33825        -0.597059       0.126064        0.0359246       0.436365        1.59423         0.332619        -0.560988      
  5.816e+010      -0.352617       -0.576963       0.127748        0.0329322       0.468234        1.55576         0.32182         -0.562724      
  5.924e+010      -0.363888       -0.571142       0.126128        0.0316947       0.491511        1.53047         0.318037        -0.56341       
  6.032e+010      -0.370699       -0.55399        0.127128        0.028624        0.520606        1.49324         0.306421        -0.562805      
  6.14e+010       -0.38908        -0.54117        0.126994        0.0273041       0.55233         1.47082         0.30008         -0.567305      
  6.248e+010      -0.385789       -0.526347       0.125406        0.0219876       0.563894        1.43443         0.293279        -0.5618        
  6.356e+010      -0.395865       -0.507832       0.124018        0.0212823       0.589198        1.40457         0.280544        -0.567816      
  6.464e+010      -0.397503       -0.514755       0.121438        0.0224638       0.597947        1.38719         0.281776        -0.570424      
  6.572e+010      -0.39752        -0.506446       0.118418        0.0226867       0.619108        1.36434         0.271683        -0.575272      
  6.68e+010       -0.414564       -0.506007       0.11897         0.0239599       0.643708        1.34785         0.266928        -0.581802      
  6.788e+010      -0.423157       -0.500258       0.119977        0.0249976       0.670001        1.32458         0.256386        -0.585295      
  6.896e+010      -0.455996       -0.48793        0.123525        0.0249561       0.701108        1.30016         0.249185        -0.575592      
  7.004e+010      -0.46306        -0.470365       0.125372        0.0231449       0.725219        1.26109         0.230222        -0.587415      
  7.112e+010      -0.474081       -0.458648       0.125862        0.0207027       0.742626        1.22612         0.219334        -0.585021      
  7.22e+010       -0.475402       -0.442418       0.127173        0.0187221       0.7613          1.19618         0.213682        -0.594678      
  7.328e+010      -0.486877       -0.424686       0.126318        0.0167436       0.773819        1.16773         0.211683        -0.587945      
  7.436e+010      -0.491934       -0.410185       0.126975        0.0148837       0.788477        1.1341          0.201553        -0.585011      
  7.544e+010      -0.499318       -0.393699       0.127847        0.0117703       0.801504        1.10082         0.18891         -0.578713      
  7.652e+010      -0.505411       -0.38755        0.12679         0.00863875      0.812519        1.07012         0.174966        -0.578063      
  7.76e+010       -0.505068       -0.379049       0.124067        0.00704325      0.819596        1.0447          0.166072        -0.58115       
  7.868e+010      -0.511393       -0.361818       0.123813        0.00516849      0.827852        1.01753         0.169177        -0.58849       
  7.976e+010      -0.514748       -0.350017       0.122161        0.00214698      0.829373        0.987504        0.166623        -0.579194      
  8.084e+010      -0.513777       -0.337723       0.117381        0.000287136     0.824682        0.971745        0.165851        -0.573866      
  8.192e+010      -0.518275       -0.338518       0.113957        0.00385299      0.83569         0.970524        0.168313        -0.58059       
  8.3e+010        -0.524129       -0.332851       0.113062        0.00333641      0.846251        0.945955        0.158036        -0.580261      
  8.408e+010      -0.527998       -0.322307       0.111927        0.0032453       0.855279        0.925523        0.149385        -0.585525      
  8.516e+010      -0.53452        -0.305868       0.110397        0.00293249      0.867548        0.903983        0.15094         -0.594612      
  8.624e+010      -0.539487       -0.298786       0.107799        0.00563103      0.87556         0.890635        0.150482        -0.593048      
  8.732e+010      -0.548889       -0.290215       0.108003        0.00840779      0.896409        0.87362         0.144688        -0.605898      
  8.84e+010       -0.55768        -0.284742       0.109014        0.0105655       0.91481         0.854513        0.134847        -0.606739      
  8.948e+010      -0.572165       -0.269751       0.115123        0.0110671       0.93757         0.813622        0.111604        -0.607497      
  9.056e+010      -0.565014       -0.245855       0.114283        0.00523709      0.93526         0.782433        0.103182        -0.600374      
  9.164e+010      -0.57218        -0.230442       0.113578        0.00362815      0.937703        0.759326        0.102931        -0.608567      
  9.272e+010      -0.565773       -0.223247       0.108546        0.00235308      0.933374        0.745087        0.106329        -0.602691      
  9.38e+010       -0.577082       -0.210824       0.108884        0.00220669      0.944339        0.726326        0.103551        -0.619848      
  9.488e+010      -0.575187       -0.212368       0.103886        0.00380873      0.94995         0.725541        0.117557        -0.618694      
  9.596e+010      -0.575702       -0.197583       0.103014        0.00608162      0.963977        0.70467         0.0989381       -0.626624      
  9.704e+010      -0.577322       -0.179122       0.103657        0.00697284      0.976197        0.674714        0.0828664       -0.63984       
  9.812e+010      -0.587361       -0.181692       0.103341        0.0102267       0.995925        0.655201        0.0798301       -0.650305      
  9.92e+010       -0.592104       -0.156318       0.103618        0.0128231       1.00203         0.624914        0.073448        -0.646965      
  1.0028e+011     -0.596251       -0.149894       0.106493        0.0135769       1.02189         0.594162        0.0685893       -0.664832      
  1.0136e+011     -0.597192       -0.140383       0.103288        0.015156        1.03449         0.574151        0.0585589       -0.668128      
  1.0244e+011     -0.595476       -0.131206       0.104192        0.0153339       1.04058         0.547285        0.0466917       -0.662741      
  1.0352e+011     -0.603351       -0.11779        0.101822        0.0206536       1.05553         0.524156        0.0241307       -0.683008      
  1.046e+011      -0.601408       -0.105644       0.107081        0.0222364       1.06319         0.500373        0.02358         -0.689194      
  1.0568e+011     -0.607184       -0.0846808      0.111113        0.0216693       1.07162         0.466924        -0.00763559     -0.690202      
  1.0676e+011     -0.606632       -0.0825269      0.111611        0.0186665       1.06875         0.442165        -0.0143546      -0.699434      
  1.0784e+011     -0.607276       -0.0696579      0.112485        0.0206009       1.06156         0.415721        -0.0341031      -0.67664       
  1.0892e+011     -0.606596       -0.0586466      0.113356        0.0205814       1.05731         0.401013        -0.0431225      -0.674418      
  1.1e+011        -0.614225       -0.045659       0.114977        0.0218149       1.06419         0.385731        -0.0386846      -0.683777      
END_DB

