! VERSION = 6.00
BEGIN_HEADER
 ICCAP_INPUTS
  Vds        V  D GROUND SMU1 0 CON        4.5
  freq       F  LIN        1    2e+009     1.1e+011   101  1.08e+009 
  Vgs        V  G GROUND SMU2 0 CON        -0.4
 ICCAP_OUTPUTS
  S_deemb    S  P1 P2 GROUND NWA B
END_HEADER

BEGIN_DB
 ICCAP_VAR Vds        4.5            
 ICCAP_VAR Vgs        -0.4           

 #freq            R:S_deemb(1,1)  I:S_deemb(1,1)  R:S_deemb(1,2)  I:S_deemb(1,2)  R:S_deemb(2,1)  I:S_deemb(2,1)  R:S_deemb(2,2)  I:S_deemb(2,2) 
  2e+009          0.991916        -0.100778       0.00324355      0.00937078      -3.12759        0.288949        0.841484        -0.036024      
  3.08e+009       0.983475        -0.157722       0.00395699      0.0154944       -3.10265        0.436142        0.840045        -0.0625472     
  4.16e+009       0.971931        -0.212436       0.00483305      0.0209162       -3.07423        0.581947        0.837884        -0.0864834     
  5.24e+009       0.955107        -0.267827       0.0066552       0.0273011       -3.03004        0.72774         0.832682        -0.111868      
  6.32e+009       0.935504        -0.318424       0.00880213      0.0323616       -2.9768         0.860614        0.826499        -0.133902      
  7.4e+009        0.914243        -0.368879       0.0106851       0.0372907       -2.92518        0.998021        0.821257        -0.156161      
  8.48e+009       0.888776        -0.416587       0.0134118       0.0421428       -2.85662        1.12604         0.813429        -0.178378      
  9.56e+009       0.860907        -0.462562       0.0162452       0.0467526       -2.78625        1.25196         0.805274        -0.200216      
  1.064e+010      0.830669        -0.506948       0.0192194       0.0513165       -2.70707        1.37159         0.796755        -0.221424      
  1.172e+010      0.798377        -0.54744        0.0224312       0.0554587       -2.62175        1.48276         0.787574        -0.241259      
  1.28e+010       0.763077        -0.587806       0.0258202       0.0598849       -2.52927        1.5927          0.777378        -0.261747      
  1.388e+010      0.724873        -0.623878       0.0302497       0.064196        -2.42399        1.69067         0.764303        -0.28201       
  1.496e+010      0.684769        -0.655789       0.0349061       0.0675015       -2.31825        1.77909         0.750097        -0.30003       
  1.604e+010      0.646411        -0.684818       0.0390746       0.0701143       -2.21592        1.8583          0.738208        -0.317151      
  1.712e+010      0.604759        -0.712424       0.0433534       0.0730489       -2.10571        1.93671         0.725292        -0.334204      
  1.82e+010       0.56248         -0.735599       0.0480414       0.07543         -1.99404        2.004           0.71102         -0.349682      
  1.928e+010      0.518579        -0.754649       0.0536386       0.077604        -1.87537        2.05546         0.694296        -0.363985      
  2.036e+010      0.475277        -0.771233       0.0583483       0.0784528       -1.76129        2.10647         0.680028        -0.376208      
  2.144e+010      0.432821        -0.786042       0.0633489       0.0797321       -1.64573        2.14567         0.663554        -0.390672      
  2.252e+010      0.389866        -0.797369       0.067701        0.0806437       -1.53045        2.17871         0.648924        -0.401424      
  2.36e+010       0.347963        -0.8052         0.0727075       0.0809837       -1.42093        2.20447         0.632514        -0.41115       
  2.468e+010      0.306373        -0.808871       0.0775446       0.0804547       -1.30799        2.22073         0.616916        -0.419929      
  2.576e+010      0.269655        -0.811478       0.0817773       0.0803341       -1.20447        2.22947         0.602283        -0.429828      
  2.684e+010      0.230923        -0.81371        0.0860619       0.0797298       -1.10247        2.2342          0.587984        -0.437489      
  2.792e+010      0.195326        -0.811241       0.0899757       0.0785219       -1.00135        2.23194         0.573558        -0.444331      
  2.9e+010        0.158435        -0.805068       0.0938277       0.076648        -0.900122       2.22351         0.557724        -0.448615      
  3.008e+010      0.128973        -0.801032       0.096246        0.0756601       -0.815852       2.21209         0.546189        -0.452289      
  3.116e+010      0.096405        -0.79492        0.100548        0.0737744       -0.722399       2.20064         0.530948        -0.45904       
  3.224e+010      0.0652895       -0.788941       0.102885        0.0718628       -0.640885       2.1829          0.519218        -0.464324      
  3.332e+010      0.0387914       -0.780062       0.104458        0.0700769       -0.562262       2.16103         0.508926        -0.468103      
  3.44e+010       0.00859843      -0.772497       0.106843        0.0696208       -0.485095       2.13828         0.495691        -0.471981      
  3.548e+010      -0.0169292      -0.764496       0.110445        0.0673072       -0.412919       2.11507         0.483125        -0.475724      
  3.656e+010      -0.0397751      -0.757873       0.111914        0.0663551       -0.349359       2.09402         0.47451         -0.479926      
  3.764e+010      -0.0629831      -0.74959        0.113724        0.0646765       -0.285668       2.06956         0.46216         -0.485888      
  3.872e+010      -0.0857862      -0.743888       0.115284        0.0639048       -0.226717       2.04731         0.451057        -0.490651      
  3.98e+010       -0.109095       -0.731449       0.116949        0.0625474       -0.166378       2.01843         0.441321        -0.491036      
  4.088e+010      -0.130976       -0.720496       0.118901        0.0604171       -0.106732       1.98769         0.430608        -0.493885      
  4.196e+010      -0.150294       -0.708116       0.121554        0.0590911       -0.0493333      1.96072         0.42072         -0.500272      
  4.304e+010      -0.171977       -0.702216       0.123215        0.0574025       0.00110221      1.93645         0.409023        -0.501886      
  4.412e+010      -0.196044       -0.688848       0.125823        0.0553752       0.0600374       1.90714         0.395482        -0.505075      
  4.52e+010       -0.211222       -0.675733       0.126864        0.0530752       0.102143        1.87            0.388923        -0.503641      
  4.628e+010      -0.227626       -0.661573       0.127857        0.0504524       0.145834        1.83478         0.378601        -0.502921      
  4.736e+010      -0.244294       -0.649373       0.12875         0.0467745       0.186829        1.80342         0.370443        -0.505621      
  4.844e+010      -0.257657       -0.639052       0.128224        0.0462442       0.225114        1.77274         0.362762        -0.506812      
  4.952e+010      -0.277706       -0.621949       0.129455        0.0434503       0.269293        1.73662         0.35032         -0.507476      
  5.06e+010       -0.290902       -0.607608       0.131153        0.0422569       0.301212        1.71643         0.347699        -0.512106      
  5.168e+010      -0.289169       -0.580251       0.12754         0.0410872       0.328454        1.664           0.348761        -0.505687      
  5.276e+010      -0.298908       -0.616073       0.13137         0.0410577       0.354768        1.67354         0.331755        -0.527485      
  5.384e+010      -0.320917       -0.597018       0.131971        0.0384262       0.393961        1.636           0.325304        -0.522445      
  5.492e+010      -0.336817       -0.579079       0.131472        0.0365412       0.4315          1.60261         0.312937        -0.522674      
  5.6e+010        -0.354728       -0.571437       0.132469        0.0362663       0.465654        1.58055         0.306926        -0.530035      
  5.708e+010      -0.366449       -0.555523       0.133405        0.0348394       0.499244        1.54535         0.295778        -0.528461      
  5.816e+010      -0.378648       -0.537118       0.135071        0.0318415       0.527452        1.5066          0.28519         -0.530191      
  5.924e+010      -0.387156       -0.52847        0.133765        0.0309914       0.548735        1.47863         0.28323         -0.529701      
  6.032e+010      -0.394586       -0.512126       0.134218        0.0289062       0.57434         1.44188         0.270969        -0.528064      
  6.14e+010       -0.409201       -0.500722       0.134232        0.026901        0.603217        1.41717         0.265548        -0.533797      
  6.248e+010      -0.407677       -0.484538       0.133305        0.0223807       0.613716        1.38098         0.25995         -0.527859      
  6.356e+010      -0.416193       -0.469807       0.131846        0.0210865       0.636469        1.35163         0.246223        -0.534528      
  6.464e+010      -0.416559       -0.47043        0.129697        0.0216938       0.64357         1.33287         0.250841        -0.536011      
  6.572e+010      -0.418032       -0.463448       0.125983        0.0221592       0.663225        1.30854         0.240813        -0.53752       
  6.68e+010       -0.432081       -0.463363       0.127386        0.0235635       0.687047        1.28997         0.2358          -0.546736      
  6.788e+010      -0.439639       -0.458809       0.127931        0.0239563       0.709988        1.26837         0.224059        -0.548325      
  6.896e+010      -0.470408       -0.445622       0.131366        0.0236218       0.738342        1.24221         0.21702         -0.538041      
  7.004e+010      -0.475993       -0.429081       0.133371        0.0218852       0.759042        1.20398         0.199242        -0.549519      
  7.112e+010      -0.486007       -0.417177       0.134007        0.0193406       0.774581        1.16916         0.189287        -0.547281      
  7.22e+010       -0.486542       -0.401114       0.135343        0.0175925       0.791001        1.13918         0.184469        -0.556877      
  7.328e+010      -0.497296       -0.383415       0.134303        0.0156966       0.801513        1.11067         0.183029        -0.549594      
  7.436e+010      -0.500788       -0.370692       0.13491         0.0136922       0.813237        1.0789          0.173496        -0.546493      
  7.544e+010      -0.507904       -0.353637       0.135769        0.0108178       0.824928        1.04531         0.161747        -0.539887      
  7.652e+010      -0.512406       -0.348037       0.134987        0.00769106      0.834001        1.016           0.148233        -0.539385      
  7.76e+010       -0.511658       -0.339966       0.132342        0.00620227      0.839491        0.991471        0.139679        -0.542496      
  7.868e+010      -0.51726        -0.323972       0.132277        0.00435097      0.846604        0.966137        0.143228        -0.549997      
  7.976e+010      -0.519458       -0.313023       0.130698        0.00129891      0.847001        0.938348        0.141297        -0.540539      
  8.084e+010      -0.518986       -0.300238       0.126325        -0.00027468     0.84226         0.920359        0.140523        -0.535987      
  8.192e+010      -0.522618       -0.300553       0.123308        0.00308881      0.852503        0.918555        0.142589        -0.541628      
  8.3e+010        -0.528655       -0.293484       0.122659        0.00259789      0.862384        0.892825        0.132738        -0.541407      
  8.408e+010      -0.531116       -0.28453        0.121869        0.00226821      0.870596        0.875372        0.123731        -0.546492      
  8.516e+010      -0.536637       -0.269336       0.120418        0.00178593      0.881259        0.854655        0.125504        -0.555324      
  8.624e+010      -0.54137        -0.261231       0.11838         0.00427701      0.88807         0.84054         0.125224        -0.552737      
  8.732e+010      -0.549167       -0.252421       0.118674        0.00677594      0.907121        0.821472        0.119736        -0.564975      
  8.84e+010       -0.55779        -0.246096       0.119692        0.00856356      0.923015        0.801172        0.110422        -0.564572      
  8.948e+010      -0.570043       -0.231664       0.125413        0.00871138      0.942945        0.762352        0.0884774       -0.565074      
  9.056e+010      -0.563264       -0.207636       0.12467         0.00336068      0.9399          0.730251        0.0800705       -0.558222      
  9.164e+010      -0.569259       -0.192977       0.123883        0.00162117      0.941634        0.70808         0.0802632       -0.566546      
  9.272e+010      -0.562395       -0.186481       0.119576        0.000138691     0.937728        0.695107        0.0834106       -0.55971       
  9.38e+010       -0.573272       -0.173809       0.120053        -0.000211199    0.946492        0.674653        0.0804313       -0.576773      
  9.488e+010      -0.571074       -0.174361       0.115837        0.00124521      0.95163         0.672039        0.0938899       -0.574777      
  9.596e+010      -0.571104       -0.159281       0.115202        0.00309146      0.963079        0.650167        0.0752216       -0.581448      
  9.704e+010      -0.571416       -0.141912       0.11591         0.00370479      0.973579        0.621973        0.059883        -0.594035      
  9.812e+010      -0.580911       -0.144097       0.11591         0.00658924      0.991252        0.601787        0.0575022       -0.602701      
  9.92e+010       -0.584271       -0.119498       0.116161        0.00865209      0.995154        0.573515        0.0515289       -0.598389      
  1.0028e+011     -0.587687       -0.113059       0.118959        0.00922177      1.01232         0.543245        0.0483107       -0.615458      
  1.0136e+011     -0.588135       -0.103467       0.115926        0.0103316       1.02207         0.522951        0.0385251       -0.617038      
  1.0244e+011     -0.585356       -0.0944918      0.117111        0.0104896       1.02689         0.497208        0.0273058       -0.611663      
  1.0352e+011     -0.592261       -0.0812515      0.115118        0.0149389       1.03959         0.474407        0.00510145      -0.630259      
  1.046e+011      -0.589224       -0.0697422      0.119764        0.0158775       1.04473         0.452214        0.00624178      -0.635494      
  1.0568e+011     -0.593658       -0.0486532      0.123196        0.0149882       1.05049         0.419907        -0.0228586      -0.634452      
  1.0676e+011     -0.59273        -0.0476799      0.123862        0.0117898       1.04783         0.397916        -0.0273763      -0.644476      
  1.0784e+011     -0.592726       -0.0353146      0.124504        0.0136531       1.04026         0.373465        -0.0456121      -0.621779      
  1.0892e+011     -0.590994       -0.0240179      0.125436        0.013561        1.03413         0.358188        -0.0549164      -0.62046       
  1.1e+011        -0.597745       -0.0113932      0.127587        0.0140227       1.03992         0.342756        -0.0510566      -0.62868       
END_DB

