! VERSION = 6.00
BEGIN_HEADER
 ICCAP_INPUTS
  Vds        V  D GROUND SMU1 0 CON        4.5
  freq       F  LIN        1    2e+009     1.1e+011   101  1.08e+009 
  Vgs        V  G GROUND SMU2 0 CON        0.1
 ICCAP_OUTPUTS
  S_deemb    S  P1 P2 GROUND NWA B
END_HEADER

BEGIN_DB
 ICCAP_VAR Vds        4.5            
 ICCAP_VAR Vgs        0.1            

 #freq            R:S_deemb(1,1)  I:S_deemb(1,1)  R:S_deemb(1,2)  I:S_deemb(1,2)  R:S_deemb(2,1)  I:S_deemb(2,1)  R:S_deemb(2,2)  I:S_deemb(2,2) 
  2e+009          0.992284        -0.0894156      0.000644378     0.0079447       -2.61585        0.198857        0.891697        -0.0355177     
  3.08e+009       0.986115        -0.140112       0.00116906      0.0134285       -2.60358        0.313819        0.890382        -0.0584267     
  4.16e+009       0.977245        -0.188859       0.0017216       0.0181382       -2.58502        0.424699        0.889009        -0.0796366     
  5.24e+009       0.964351        -0.238843       0.00313865      0.0239585       -2.55871        0.538416        0.885243        -0.102532      
  6.32e+009       0.948857        -0.284987       0.0048476       0.0284483       -2.52553        0.643028        0.880778        -0.122633      
  7.4e+009        0.932684        -0.330544       0.0061401       0.0328163       -2.49176        0.74852         0.877292        -0.143207      
  8.48e+009       0.912693        -0.375003       0.00830557      0.0372474       -2.448          0.851667        0.871615        -0.164035      
  9.56e+009       0.890558        -0.417954       0.0105188       0.0415147       -2.40124        0.952694        0.865817        -0.184672      
  1.064e+010      0.866518        -0.459951       0.0128487       0.0458161       -2.34812        1.04998         0.859819        -0.205         
  1.172e+010      0.840463        -0.499133       0.0153198       0.0496948       -2.29036        1.14213         0.85323         -0.223972      
  1.28e+010       0.811999        -0.538735       0.017946        0.0540584       -2.22813        1.23438         0.846016        -0.244118      
  1.388e+010      0.780421        -0.575465       0.0216491       0.0584283       -2.15479        1.32124         0.835979        -0.264578      
  1.496e+010      0.746804        -0.608402       0.0256507       0.0618619       -2.07981        1.39914         0.824816        -0.283361      
  1.604e+010      0.714362        -0.639034       0.0291621       0.06464         -2.0064         1.47131         0.81563         -0.301183      
  1.712e+010      0.679671        -0.668513       0.0327367       0.0678038       -1.92849        1.54245         0.805463        -0.319286      
  1.82e+010       0.642742        -0.695143       0.0368596       0.0705858       -1.84603        1.60907         0.794022        -0.33625       
  1.928e+010      0.60402         -0.718343       0.0419332       0.0731498       -1.75659        1.66479         0.779955        -0.352306      
  2.036e+010      0.565855        -0.738981       0.0462388       0.0744888       -1.67042        1.71686         0.76786         -0.366648      
  2.144e+010      0.526915        -0.75901        0.0507392       0.0763574       -1.58118        1.76409         0.754061        -0.383245      
  2.252e+010      0.488558        -0.775055       0.0549287       0.0777692       -1.49291        1.80443         0.741089        -0.396593      
  2.36e+010       0.449259        -0.788222       0.0597382       0.0786688       -1.40467        1.83873         0.726445        -0.408926      
  2.468e+010      0.410905        -0.797372       0.0644515       0.0786819       -1.31446        1.86609         0.712274        -0.420555      
  2.576e+010      0.375403        -0.80557        0.0685663       0.0790316       -1.22886        1.88738         0.698859        -0.433221      
  2.684e+010      0.337826        -0.813397       0.0729184       0.0789214       -1.14348        1.90434         0.685339        -0.443561      
  2.792e+010      0.303086        -0.816602       0.07696         0.0781144       -1.0583         1.91551         0.671545        -0.453328      
  2.9e+010        0.265846        -0.816029       0.0810724       0.0767122       -0.971412       1.92183         0.656248        -0.460657      
  3.008e+010      0.236212        -0.816764       0.0835549       0.0758758       -0.898305       1.9232          0.644717        -0.466844      
  3.116e+010      0.203179        -0.815904       0.0880566       0.0745725       -0.817142       1.92643         0.629795        -0.476633      
  3.224e+010      0.17069         -0.81482        0.0905998       0.07273         -0.744574       1.92222         0.617892        -0.484234      
  3.332e+010      0.142281        -0.810115       0.0925202       0.0710153       -0.672853       1.91433         0.606972        -0.490872      
  3.44e+010       0.110188        -0.806395       0.0947613       0.0708891       -0.60166        1.90559         0.593389        -0.497768      
  3.548e+010      0.0831977       -0.802602       0.0985792       0.0687162       -0.535619       1.89443         0.580719        -0.503358      
  3.656e+010      0.0584913       -0.798849       0.100144        0.0677713       -0.476852       1.88486         0.571496        -0.509614      
  3.764e+010      0.0334157       -0.794279       0.101927        0.0660987       -0.416256       1.87212         0.558923        -0.517388      
  3.872e+010      0.00876632      -0.790884       0.103641        0.0657511       -0.360269       1.86028         0.547402        -0.524792      
  3.98e+010       -0.0170142      -0.781209       0.105905        0.0643122       -0.30325        1.84133         0.536301        -0.526824      
  4.088e+010      -0.0415996      -0.77289        0.107708        0.0625389       -0.244908       1.82206         0.524842        -0.532534      
  4.196e+010      -0.0629086      -0.763459       0.109996        0.061539        -0.189194       1.8045          0.513893        -0.540194      
  4.304e+010      -0.0859835      -0.760007       0.112022        0.0597281       -0.141477       1.78999         0.501606        -0.543971      
  4.412e+010      -0.113135       -0.749641       0.114813        0.0576709       -0.0840439      1.77155         0.488083        -0.549646      
  4.52e+010       -0.131162       -0.737881       0.115997        0.0550824       -0.0410053      1.74238         0.479593        -0.549438      
  4.628e+010      -0.150146       -0.725201       0.117344        0.0528201       0.0043258       1.7153          0.467906        -0.55052       
  4.736e+010      -0.169018       -0.714738       0.118392        0.0488188       0.0448746       1.69194         0.458859        -0.55436       
  4.844e+010      -0.184646       -0.705552       0.117987        0.0480636       0.08485         1.66816         0.449809        -0.557144      
  4.952e+010      -0.207742       -0.69056        0.119379        0.0454843       0.130816        1.64082         0.436319        -0.559997      
  5.06e+010       -0.222719       -0.677087       0.120692        0.0440248       0.161388        1.62395         0.433147        -0.565005      
  5.168e+010      -0.225313       -0.650475       0.117345        0.0425658       0.192639        1.57648         0.432301        -0.558171      
  5.276e+010      -0.233478       -0.686206       0.120598        0.0429525       0.213694        1.59472         0.417075        -0.584321      
  5.384e+010      -0.258843       -0.669618       0.120961        0.0403655       0.256241        1.56243         0.407188        -0.580489      
  5.492e+010      -0.276387       -0.652283       0.120446        0.0384884       0.295973        1.53659         0.394023        -0.581862      
  5.6e+010        -0.296721       -0.645615       0.121884        0.0382789       0.329525        1.52025         0.388055        -0.590447      
  5.708e+010      -0.310692       -0.631765       0.123221        0.0370428       0.36648         1.49081         0.375182        -0.590885      
  5.816e+010      -0.32586        -0.612442       0.124337        0.0336864       0.397727        1.4578          0.363092        -0.593828      
  5.924e+010      -0.336749       -0.605878       0.1234          0.0329145       0.420031        1.43352         0.358941        -0.59327       
  6.032e+010      -0.346255       -0.588478       0.123397        0.0298162       0.449678        1.40145         0.346205        -0.593656      
  6.14e+010       -0.363668       -0.576605       0.123685        0.0286143       0.480406        1.38216         0.340148        -0.600689      
  6.248e+010      -0.363441       -0.561443       0.122628        0.02347         0.492358        1.34744         0.332873        -0.59506       
  6.356e+010      -0.374261       -0.543972       0.120935        0.0222833       0.517817        1.3218          0.318095        -0.603171      
  6.464e+010      -0.375471       -0.54814        0.117588        0.0226207       0.525574        1.30557         0.319632        -0.603839      
  6.572e+010      -0.377078       -0.540683       0.11444         0.0231361       0.546246        1.28479         0.308952        -0.607967      
  6.68e+010       -0.393783       -0.540911       0.115294        0.0251768       0.570911        1.27099         0.304292        -0.61739       
  6.788e+010      -0.406589       -0.532022       0.116012        0.0260291       0.604026        1.24222         0.291441        -0.621571      
  6.896e+010      -0.440557       -0.520948       0.119889        0.0261569       0.634741        1.22117         0.284197        -0.61295       
  7.004e+010      -0.44848        -0.50387        0.12221         0.0242797       0.65907         1.18441         0.263858        -0.625957      
  7.112e+010      -0.460073       -0.492149       0.123006        0.0215996       0.676763        1.15159         0.251567        -0.623848      
  7.22e+010       -0.462409       -0.475222       0.124167        0.0196657       0.696345        1.12339         0.244958        -0.634122      
  7.328e+010      -0.47474        -0.457497       0.122886        0.0178541       0.708131        1.09781         0.242857        -0.627543      
  7.436e+010      -0.480867       -0.442723       0.123449        0.0155174       0.723408        1.06394         0.231585        -0.625147      
  7.544e+010      -0.488969       -0.426217       0.124398        0.0121699       0.736477        1.03454         0.218008        -0.619174      
  7.652e+010      -0.496078       -0.419536       0.123208        0.00897993      0.747655        1.00437         0.203           -0.618701      
  7.76e+010       -0.496527       -0.410471       0.12029         0.00730167      0.755275        0.979589        0.193052        -0.622066      
  7.868e+010      -0.504006       -0.392416       0.120097        0.00541938      0.764203        0.951986        0.195379        -0.629814      
  7.976e+010      -0.508331       -0.379333       0.118372        0.00198491      0.767465        0.92106         0.192108        -0.620847      
  8.084e+010      -0.507006       -0.367851       0.113034        0.000138476     0.761549        0.90857         0.190595        -0.614813      
  8.192e+010      -0.511124       -0.368009       0.109191        0.00386108      0.771335        0.907291        0.193321        -0.621706      
  8.3e+010        -0.517662       -0.363044       0.108253        0.00314479      0.781461        0.885568        0.182001        -0.621271      
  8.408e+010      -0.52249        -0.351004       0.106846        0.00319108      0.790623        0.861905        0.172901        -0.626869      
  8.516e+010      -0.530107       -0.33413        0.105263        0.00294788      0.802339        0.840989        0.173765        -0.636616      
  8.624e+010      -0.534825       -0.327185       0.102164        0.00593498      0.809133        0.829421        0.173117        -0.635086      
  8.732e+010      -0.543962       -0.318475       0.102473        0.00891886      0.827842        0.814121        0.167064        -0.648502      
  8.84e+010       -0.553538       -0.313426       0.10328         0.0113666       0.846606        0.797697        0.156843        -0.649726      
  8.948e+010      -0.568813       -0.29885        0.109718        0.0120264       0.869043        0.758754        0.132057        -0.651421      
  9.056e+010      -0.562312       -0.275116       0.108977        0.00581301      0.866389        0.73097         0.122271        -0.64344       
  9.164e+010      -0.569859       -0.259391       0.107892        0.00416285      0.868995        0.709571        0.121633        -0.65202       
  9.272e+010      -0.563753       -0.250831       0.10244         0.00261296      0.863225        0.692602        0.124757        -0.645469      
  9.38e+010       -0.575829       -0.238422       0.102471        0.0029924       0.874228        0.676474        0.121005        -0.663395      
  9.488e+010      -0.573992       -0.240272       0.0971863       0.00465545      0.879122        0.676291        0.135816        -0.662345      
  9.596e+010      -0.574343       -0.225877       0.096227        0.00713017      0.891357        0.659348        0.116429        -0.670483      
  9.704e+010      -0.576456       -0.206663       0.0968141       0.00822379      0.902445        0.630946        0.0992064       -0.684139      
  9.812e+010      -0.586803       -0.209446       0.0961991       0.0117672       0.920481        0.613409        0.0956512       -0.695019      
  9.92e+010       -0.591974       -0.183252       0.0962264       0.0148483       0.925643        0.583957        0.0888487       -0.691485      
  1.0028e+011     -0.596872       -0.176984       0.0994401       0.0155597       0.945586        0.555832        0.0836543       -0.710407      
  1.0136e+011     -0.598129       -0.167438       0.0960265       0.0174344       0.95742         0.53793         0.072818        -0.714146      
  1.0244e+011     -0.596653       -0.157945       0.096804        0.0177504       0.96283         0.512381        0.0598701       -0.708507      
  1.0352e+011     -0.604649       -0.144605       0.0943228       0.023568        0.975727        0.493263        0.0365304       -0.729165      
  1.046e+011      -0.603107       -0.132869       0.0997682       0.0255877       0.983739        0.472002        0.0353902       -0.736156      
  1.0568e+011     -0.609705       -0.11155        0.104356        0.0254257       0.994162        0.441769        0.00298458      -0.737918      
  1.0676e+011     -0.609532       -0.108726       0.1049          0.0221935       0.991127        0.415627        -0.00533079     -0.747516      
  1.0784e+011     -0.610487       -0.0957291      0.105812        0.0242303       0.98393         0.390168        -0.0266468      -0.723733      
  1.0892e+011     -0.610175       -0.0857881      0.106419        0.0243114       0.980587        0.378963        -0.0364196      -0.720066      
  1.1e+011        -0.618817       -0.0723576      0.108154        0.0258657       0.987043        0.365892        -0.0317536      -0.729222      
END_DB

