! VERSION = 6.00
BEGIN_HEADER
 ICCAP_INPUTS
  Vds        V  D GROUND SMU1 0 CON        4.5
  freq       F  LIN        1    2e+009     1.1e+011   101  1.08e+009 
  Vgs        V  G GROUND SMU2 0 CON        -0.8
 ICCAP_OUTPUTS
  S_deemb    S  P1 P2 GROUND NWA B
END_HEADER

BEGIN_DB
 ICCAP_VAR Vds        4.5            
 ICCAP_VAR Vgs        -0.8           

 #freq            R:S_deemb(1,1)  I:S_deemb(1,1)  R:S_deemb(1,2)  I:S_deemb(1,2)  R:S_deemb(2,1)  I:S_deemb(2,1)  R:S_deemb(2,2)  I:S_deemb(2,2) 
  2e+009          0.996553        -0.0885385      0.00130026      0.011439        -2.08396        0.185623        0.860702        -0.0406847     
  3.08e+009       0.989958        -0.138243       0.00223017      0.0187286       -2.07259        0.282826        0.858467        -0.0653123     
  4.16e+009       0.98079         -0.186482       0.003321        0.025215        -2.05981        0.380479        0.855901        -0.0883414     
  5.24e+009       0.967681        -0.235221       0.00541885      0.0327007       -2.03466        0.476681        0.850949        -0.112541      
  6.32e+009       0.951995        -0.280126       0.00791133      0.038829        -1.99912        0.566323        0.84494         -0.134236      
  7.4e+009        0.934953        -0.325622       0.0101326       0.0447693       -1.97626        0.658951        0.839751        -0.155875      
  8.48e+009       0.914536        -0.368421       0.0132723       0.0506521       -1.9304         0.745894        0.832272        -0.177782      
  9.56e+009       0.892131        -0.410346       0.0165886       0.0562414       -1.88717        0.831333        0.824497        -0.199298      
  1.064e+010      0.867981        -0.450957       0.0200549       0.0617703       -1.83922        0.91074         0.81625         -0.22          
  1.172e+010      0.841866        -0.488658       0.0237965       0.0668613       -1.78552        0.987416        0.807845        -0.239677      
  1.28e+010       0.8131          -0.526844       0.0277612       0.0722271       -1.73144        1.06435         0.798206        -0.259715      
  1.388e+010      0.782095        -0.561019       0.0328739       0.0775406       -1.66143        1.13289         0.786584        -0.279989      
  1.496e+010      0.748873        -0.592744       0.0382032       0.0817012       -1.59595        1.1962          0.773191        -0.298227      
  1.604e+010      0.71716         -0.621586       0.0431059       0.085146        -1.53009        1.253           0.761747        -0.315742      
  1.712e+010      0.682064        -0.65021        0.0480862       0.0889881       -1.46369        1.31352         0.749798        -0.332832      
  1.82e+010       0.646566        -0.674959       0.0536027       0.0921457       -1.39136        1.36289         0.736228        -0.348688      
  1.928e+010      0.609153        -0.696383       0.0602111       0.0952211       -1.31215        1.40385         0.72125         -0.363933      
  2.036e+010      0.571602        -0.715579       0.0658568       0.096703        -1.23779        1.44466         0.707336        -0.376938      
  2.144e+010      0.535707        -0.733538       0.0719541       0.09882         -1.15996        1.47535         0.692404        -0.392453      
  2.252e+010      0.497238        -0.749389       0.0772412       0.100354        -1.08774        1.50886         0.678298        -0.403837      
  2.36e+010       0.45983         -0.761638       0.0834066       0.101264        -1.01312        1.53414         0.662465        -0.41499       
  2.468e+010      0.421788        -0.77058        0.0894596       0.101339        -0.938826       1.55456         0.647664        -0.42526       
  2.576e+010      0.389071        -0.77741        0.0948786       0.101549        -0.86415        1.56344         0.632978        -0.436544      
  2.684e+010      0.353012        -0.784596       0.100475        0.101365        -0.794792       1.57481         0.61898         -0.44583       
  2.792e+010      0.319808        -0.78777        0.105621        0.100481        -0.72377        1.57952         0.604382        -0.453953      
  2.9e+010        0.284261        -0.787891       0.110858        0.0987325       -0.653607       1.58379         0.58906         -0.459819      
  3.008e+010      0.255745        -0.788279       0.114523        0.097789        -0.592351       1.58135         0.576882        -0.465015      
  3.116e+010      0.222824        -0.787483       0.120066        0.0961304       -0.525711       1.58253         0.561881        -0.473075      
  3.224e+010      0.193028        -0.785999       0.123689        0.0940398       -0.465319       1.57484         0.549362        -0.479899      
  3.332e+010      0.165962        -0.78217        0.12668         0.0922458       -0.406144       1.56471         0.53806         -0.485222      
  3.44e+010       0.135984        -0.778725       0.130004        0.0911218       -0.346724       1.55488         0.52376         -0.490199      
  3.548e+010      0.109599        -0.775155       0.134913        0.0888687       -0.292873       1.54379         0.511359        -0.49493       
  3.656e+010      0.0852193       -0.771539       0.137662        0.0879023       -0.243066       1.53155         0.501484        -0.500072      
  3.764e+010      0.0602236       -0.766794       0.140589        0.0856333       -0.193369       1.51987         0.488645        -0.50689       
  3.872e+010      0.037277        -0.763027       0.143314        0.0843998       -0.145846       1.50388         0.476747        -0.512685      
  3.98e+010       0.0138005       -0.754619       0.146311        0.0828443       -0.0999407      1.48643         0.466158        -0.513764      
  4.088e+010      -0.00988566     -0.746129       0.148944        0.0798958       -0.0521873      1.4673          0.453607        -0.517015      
  4.196e+010      -0.0303713      -0.737635       0.152194        0.0782202       -0.00812364     1.44894         0.443019        -0.52431       
  4.304e+010      -0.053001       -0.733793       0.154891        0.076154        0.0317822       1.43158         0.430817        -0.527032      
  4.412e+010      -0.0789079      -0.7234         0.158775        0.0735044       0.0789117       1.41429         0.41681         -0.53097       
  4.52e+010       -0.0947482      -0.712608       0.160643        0.0704568       0.112796        1.3879          0.409141        -0.529595      
  4.628e+010      -0.112548       -0.701011       0.162513        0.0673451       0.148074        1.36259         0.397998        -0.529817      
  4.736e+010      -0.130186       -0.692472       0.164224        0.0631098       0.179562        1.34143         0.388957        -0.53339       
  4.844e+010      -0.145994       -0.682363       0.164632        0.0612793       0.211239        1.31826         0.379824        -0.535081      
  4.952e+010      -0.169078       -0.66793        0.16672         0.0580693       0.247192        1.29309         0.366695        -0.536104      
  5.06e+010       -0.181359       -0.655623       0.168891        0.0562874       0.272372        1.27751         0.363018        -0.540943      
  5.168e+010      -0.183553       -0.630331       0.165332        0.0543081       0.293051        1.23859         0.362833        -0.53454       
  5.276e+010      -0.191888       -0.665228       0.170998        0.054226        0.316483        1.24818         0.344595        -0.55772       
  5.384e+010      -0.215025       -0.647317       0.171665        0.0508105       0.347371        1.22004         0.337354        -0.553012      
  5.492e+010      -0.235036       -0.631936       0.171455        0.0478703       0.377869        1.19499         0.323401        -0.55269       
  5.6e+010        -0.25051        -0.626987       0.173032        0.0471731       0.404743        1.17876         0.316639        -0.560583      
  5.708e+010      -0.265211       -0.612139       0.174669        0.044594        0.432328        1.15162         0.305182        -0.558488      
  5.816e+010      -0.279082       -0.597397       0.176895        0.0410327       0.455283        1.12216         0.293172        -0.56104       
  5.924e+010      -0.287017       -0.587185       0.176254        0.0393533       0.471876        1.10068         0.290593        -0.560347      
  6.032e+010      -0.299495       -0.571957       0.177437        0.0358044       0.493745        1.07163         0.277454        -0.558699      
  6.14e+010       -0.312099       -0.563939       0.177772        0.0335053       0.516365        1.05411         0.27104         -0.564508      
  6.248e+010      -0.316274       -0.54793        0.177255        0.0273988       0.525651        1.02392         0.264592        -0.558781      
  6.356e+010      -0.326133       -0.537763       0.177517        0.0256528       0.545086        1.00204         0.248992        -0.565407      
  6.464e+010      -0.323649       -0.531258       0.17417         0.0256479       0.54999         0.986506        0.251916        -0.566964      
  6.572e+010      -0.330048       -0.522787       0.171105        0.0251487       0.564539        0.966142        0.240933        -0.568541      
  6.68e+010       -0.340378       -0.527408       0.172639        0.0259758       0.582336        0.952665        0.23552         -0.577888      
  6.788e+010      -0.341458       -0.531414       0.174311        0.0252266       0.594231        0.916876        0.222995        -0.578933      
  6.896e+010      -0.373889       -0.520842       0.178917        0.0236864       0.61862         0.898801        0.215816        -0.569114      
  7.004e+010      -0.378965       -0.506778       0.180741        0.0209668       0.633969        0.866048        0.197208        -0.579783      
  7.112e+010      -0.390818       -0.496741       0.181878        0.0172642       0.645856        0.839752        0.186052        -0.57775       
  7.22e+010       -0.392674       -0.481602       0.18332         0.0140937       0.660597        0.816753        0.180576        -0.58741       
  7.328e+010      -0.405999       -0.464673       0.182381        0.0118161       0.669153        0.79466         0.178793        -0.579519      
  7.436e+010      -0.408946       -0.455888       0.183545        0.00862194      0.675659        0.765777        0.168709        -0.576689      
  7.544e+010      -0.419274       -0.437856       0.184706        0.00474133      0.687014        0.741953        0.15647         -0.570249      
  7.652e+010      -0.42443        -0.436902       0.184277        0.000722717     0.690339        0.715224        0.14194         -0.570109      
  7.76e+010       -0.424296       -0.432623       0.181721        -0.00222741     0.690585        0.693703        0.131345        -0.573294      
  7.868e+010      -0.432451       -0.419773       0.181416        -0.00534088     0.693237        0.672867        0.133907        -0.580668      
  7.976e+010      -0.436062       -0.410447       0.179553        -0.00946439     0.693544        0.649827        0.13082         -0.571332      
  8.084e+010      -0.438924       -0.391744       0.174787        -0.0117374      0.693706        0.638316        0.128492        -0.56656       
  8.192e+010      -0.444414       -0.390484       0.172229        -0.00875813     0.701218        0.638249        0.129215        -0.571123      
  8.3e+010        -0.451008       -0.382829       0.17135         -0.0102426      0.710387        0.620692        0.117735        -0.570019      
  8.408e+010      -0.451606       -0.379204       0.170682        -0.0118606      0.713031        0.600585        0.106939        -0.574951      
  8.516e+010      -0.459404       -0.368113       0.16909         -0.0131736      0.715946        0.583231        0.108206        -0.58284       
  8.624e+010      -0.464642       -0.356487       0.166691        -0.0115115      0.723849        0.573881        0.106194        -0.578854      
  8.732e+010      -0.472607       -0.350547       0.167034        -0.00963723     0.734255        0.557703        0.0999734       -0.589256      
  8.84e+010       -0.482827       -0.343069       0.168188        -0.00860351     0.74804         0.54666         0.0904172       -0.58744       
  8.948e+010      -0.495274       -0.331338       0.173911        -0.00994337     0.767929        0.516655        0.0690595       -0.587256      
  9.056e+010      -0.491984       -0.307525       0.172688        -0.0168869      0.765207        0.490003        0.0594513       -0.580743      
  9.164e+010      -0.501533       -0.291849       0.171746        -0.0192809      0.765505        0.472367        0.0584601       -0.588738      
  9.272e+010      -0.493444       -0.289191       0.166558        -0.0213524      0.758543        0.457876        0.0588955       -0.580581      
  9.38e+010       -0.507915       -0.276487       0.166965        -0.0226581      0.76303         0.443633        0.0553868       -0.597211      
  9.488e+010      -0.506823       -0.273691       0.161918        -0.0217577      0.7694          0.442037        0.0669154       -0.592845      
  9.596e+010      -0.507971       -0.257258       0.16115         -0.0205342      0.776875        0.42736         0.0477334       -0.59771       
  9.704e+010      -0.50949        -0.241848       0.161628        -0.0206825      0.781517        0.405043        0.0312223       -0.608858      
  9.812e+010      -0.518922       -0.246736       0.161445        -0.0186147      0.791463        0.390572        0.0282972       -0.614282      
  9.92e+010       -0.524314       -0.223828       0.16102         -0.0165542      0.792513        0.369111        0.0233102       -0.607948      
  1.0028e+011     -0.529382       -0.218789       0.164206        -0.0166285      0.803824        0.347097        0.0204263       -0.624391      
  1.0136e+011     -0.530917       -0.206846       0.161011        -0.0161695      0.811287        0.333367        0.00960339      -0.623682      
  1.0244e+011     -0.528498       -0.197299       0.161498        -0.0168061      0.816008        0.313749        -0.00227285     -0.616524      
  1.0352e+011     -0.536902       -0.187223       0.158651        -0.013027       0.819787        0.298631        -0.0247899      -0.631141      
  1.046e+011      -0.535477       -0.177589       0.163131        -0.0122545      0.824135        0.286137        -0.0212394      -0.634141      
  1.0568e+011     -0.542566       -0.155565       0.166779        -0.0139066      0.832259        0.264046        -0.048214       -0.632558      
  1.0676e+011     -0.542465       -0.158355       0.167181        -0.018831       0.829066        0.245576        -0.0525013      -0.642938      
  1.0784e+011     -0.544229       -0.145396       0.167135        -0.0182606      0.824715        0.228563        -0.070663       -0.619737      
  1.0892e+011     -0.544291       -0.132793       0.1667          -0.0196326      0.822805        0.217929        -0.0813663      -0.616929      
  1.1e+011        -0.553784       -0.122353       0.167734        -0.0191559      0.824634        0.206425        -0.0780449      -0.622358      
END_DB

