! VERSION = 6.00
BEGIN_HEADER
 ICCAP_INPUTS
  Vds        V  D GROUND SMU1 0 CON        4.5
  freq       F  LIN        1    2e+009     1.1e+011   101  1.08e+009 
  Vgs        V  G GROUND SMU2 0 CON        -1.2
 ICCAP_OUTPUTS
  S_deemb    S  P1 P2 GROUND NWA B
END_HEADER

BEGIN_DB
 ICCAP_VAR Vds        4.5            
 ICCAP_VAR Vgs        -1.2           

 #freq            R:S_deemb(1,1)  I:S_deemb(1,1)  R:S_deemb(1,2)  I:S_deemb(1,2)  R:S_deemb(2,1)  I:S_deemb(2,1)  R:S_deemb(2,2)  I:S_deemb(2,2) 
  2e+009          0.998943        -0.0470694      -8.20257e-005   0.0148527       -0.0914503      0.0211731       0.981935        -0.0360946     
  3.08e+009       0.997298        -0.0735717      0.000763849     0.0240768       -0.0926907      0.0339449       0.981425        -0.056626      
  4.16e+009       0.994763        -0.0997137      0.00171036      0.0324917       -0.0925507      0.0460503       0.980496        -0.0768182     
  5.24e+009       0.991075        -0.127601       0.00362066      0.0420833       -0.106384       0.0619244       0.978162        -0.0974886     
  6.32e+009       0.986181        -0.153341       0.00596904      0.0503023       -0.106442       0.0748454       0.975201        -0.116724      
  7.4e+009        0.981796        -0.177465       0.00799069      0.0583517       -0.0892463      0.0835045       0.972417        -0.136772      
  8.48e+009       0.975558        -0.20336        0.0110147       0.066519        -0.0893065      0.0964983       0.968527        -0.157056      
  9.56e+009       0.968922        -0.22797        0.0141357       0.0745274       -0.0819653      0.107319        0.96434         -0.176942      
  1.064e+010      0.961806        -0.252654       0.0174597       0.0826208       -0.0762144      0.118385        0.960454        -0.196173      
  1.172e+010      0.953862        -0.276451       0.0210491       0.0902161       -0.0704477      0.129098        0.955417        -0.214757      
  1.28e+010       0.945546        -0.300959       0.0248964       0.0984882       -0.0629439      0.139711        0.950678        -0.233973      
  1.388e+010      0.935761        -0.326053       0.0300216       0.106828        -0.0577547      0.152286        0.944046        -0.253734      
  1.496e+010      0.924444        -0.349471       0.03578         0.11429         -0.0493873      0.162308        0.937233        -0.273368      
  1.604e+010      0.913571        -0.372002       0.0409598       0.120922        -0.0433611      0.172394        0.930643        -0.291714      
  1.712e+010      0.903398        -0.392616       0.0465242       0.128055        -0.0276376      0.177802        0.923424        -0.310628      
  1.82e+010       0.890356        -0.415809       0.0527622       0.135102        -0.0239797      0.190124        0.916547        -0.328466      
  1.928e+010      0.876776        -0.437181       0.0604337       0.141696        -0.0109719      0.197666        0.906382        -0.346539      
  2.036e+010      0.862251        -0.457482       0.0674308       0.146972        -0.00215067     0.20544         0.897846        -0.363737      
  2.144e+010      0.848552        -0.47874        0.0745365       0.153062        0.00772218      0.213968        0.88832         -0.380751      
  2.252e+010      0.83502         -0.497745       0.082373        0.158845        0.0207283       0.219077        0.880377        -0.39878       
  2.36e+010       0.818725        -0.517386       0.0908565       0.163673        0.0310702       0.226386        0.869929        -0.415361      
  2.468e+010      0.804879        -0.531902       0.0994721       0.167343        0.0490083       0.225766        0.858357        -0.431558      
  2.576e+010      0.78788         -0.551401       0.107365        0.171536        0.0533326       0.237197        0.848006        -0.447796      
  2.684e+010      0.772229        -0.567658       0.116403        0.174567        0.0688974       0.237671        0.836435        -0.463953      
  2.792e+010      0.755784        -0.584641       0.125049        0.177475        0.0780918       0.243605        0.825702        -0.478518      
  2.9e+010        0.739558        -0.59744        0.134422        0.179194        0.0941873       0.242229        0.81354         -0.492453      
  3.008e+010      0.72387         -0.612335       0.142519        0.180932        0.103035        0.246407        0.802848        -0.505784      
  3.116e+010      0.709537        -0.624802       0.152282        0.18277         0.11858         0.244912        0.789745        -0.52017       
  3.224e+010      0.690791        -0.640075       0.160715        0.18324         0.127748        0.248734        0.778298        -0.534485      
  3.332e+010      0.673749        -0.653382       0.168912        0.183185        0.138301        0.249576        0.766804        -0.548383      
  3.44e+010       0.65271         -0.667679       0.177704        0.183833        0.150363        0.250487        0.753481        -0.562664      
  3.548e+010      0.636922        -0.679175       0.187254        0.183291        0.163357        0.248091        0.740132        -0.573506      
  3.656e+010      0.620673        -0.690634       0.194875        0.183151        0.172989        0.249313        0.728204        -0.585857      
  3.764e+010      0.604416        -0.703642       0.203569        0.181891        0.185708        0.245376        0.714635        -0.599541      
  3.872e+010      0.583978        -0.715932       0.210812        0.181248        0.193719        0.248089        0.70042         -0.612304      
  3.98e+010       0.565618        -0.721599       0.218894        0.179001        0.20543         0.242059        0.685641        -0.62158       
  4.088e+010      0.545168        -0.731383       0.226976        0.176551        0.216011        0.241419        0.671403        -0.632962      
  4.196e+010      0.527674        -0.738519       0.235275        0.174593        0.225849        0.237929        0.657435        -0.644129      
  4.304e+010      0.510313        -0.748058       0.243113        0.172749        0.236423        0.235324        0.643049        -0.65371       
  4.412e+010      0.490005        -0.756578       0.252944        0.169971        0.249286        0.230872        0.627631        -0.663189      
  4.52e+010       0.471073        -0.760455       0.259336        0.165801        0.256921        0.22773         0.614417        -0.668418      
  4.628e+010      0.453068        -0.76376        0.266577        0.160821        0.266526        0.22027         0.599109        -0.675156      
  4.736e+010      0.437058        -0.769773       0.274578        0.1557          0.276146        0.214057        0.587011        -0.683205      
  4.844e+010      0.418218        -0.774209       0.278474        0.151436        0.282496        0.210085        0.572491        -0.690498      
  4.952e+010      0.395819        -0.777859       0.286858        0.145787        0.293166        0.201704        0.55627         -0.698681      
  5.06e+010       0.384003        -0.777052       0.29178         0.142768        0.299464        0.197346        0.548178        -0.703369      
  5.168e+010      0.366774        -0.770706       0.290308        0.135613        0.299233        0.188939        0.540331        -0.698261      
  5.276e+010      0.370013        -0.797744       0.303403        0.140303        0.313472        0.193537        0.526834        -0.733902      
  5.384e+010      0.346902        -0.799509       0.308286        0.131682        0.320689        0.182784        0.506596        -0.732306      
  5.492e+010      0.323877        -0.801006       0.313067        0.124891        0.327111        0.175228        0.490044        -0.737353      
  5.6e+010        0.308389        -0.809101       0.319209        0.123495        0.335155        0.171457        0.479499        -0.745821      
  5.708e+010      0.289044        -0.808198       0.325424        0.11676         0.342537        0.164695        0.461202        -0.749326      
  5.816e+010      0.269123        -0.806838       0.331963        0.10888         0.349894        0.155411        0.445569        -0.754109      
  5.924e+010      0.255016        -0.808458       0.332867        0.104115        0.352018        0.149268        0.434925        -0.756265      
  6.032e+010      0.236508        -0.805168       0.338689        0.0959018       0.359506        0.139812        0.417911        -0.760318      
  6.14e+010       0.220944        -0.808608       0.344632        0.090534        0.366214        0.133396        0.40727         -0.767491      
  6.248e+010      0.209429        -0.803593       0.346757        0.0815235       0.368748        0.122278        0.397193        -0.764684      
  6.356e+010      0.19126         -0.801231       0.350154        0.0732765       0.372893        0.114489        0.378098        -0.775244      
  6.464e+010      0.188512        -0.800445       0.346564        0.0704135       0.370678        0.109289        0.368063        -0.778738      
  6.572e+010      0.178261        -0.796634       0.344877        0.0645088       0.369603        0.101737        0.350743        -0.785488      
  6.68e+010       0.1696          -0.809612       0.351747        0.0651624       0.376281        0.102078        0.342174        -0.789363      
  6.788e+010      0.0909022       -0.790904       0.35476         0.0581978       0.394319        0.186074        0.324684        -0.794461      
  6.896e+010      0.0345865       -0.79149        0.365255        0.0516753       0.409446        0.200931        0.315116        -0.787641      
  7.004e+010      0.00862825      -0.772936       0.367843        0.0411964       0.422795        0.205587        0.28409         -0.798598      
  7.112e+010      -0.0329965      -0.757226       0.368435        0.0367131       0.436008        0.223661        0.271562        -0.791896      
  7.22e+010       -0.0704554      -0.7292         0.371651        0.0299567       0.460732        0.255585        0.262188        -0.801396      
  7.328e+010      -0.07373        -0.729618       0.373837        0.015176        0.45725         0.219283        0.248105        -0.799025      
  7.436e+010      -0.0756453      -0.73038        0.377862        0.0089708       0.456003        0.198717        0.235831        -0.797856      
  7.544e+010      -0.0225258      -0.762372       0.378842        -0.000723761    0.4353          0.0980484       0.217739        -0.790151      
  7.652e+010      -0.0363172      -0.765049       0.38001         -0.0103795      0.436043        0.0875131       0.196938        -0.789894      
  7.76e+010       -0.0502986      -0.763032       0.378269        -0.0180809      0.434956        0.0872065       0.180667        -0.793255      
  7.868e+010      -0.0787035      -0.745836       0.379383        -0.0255125      0.442234        0.09462         0.180724        -0.802023      
  7.976e+010      -0.104913       -0.728684       0.377871        -0.0344482      0.448044        0.103456        0.174902        -0.794048      
  8.084e+010      -0.102659       -0.724756       0.369939        -0.0458283      0.437442        0.0773881       0.162121        -0.789453      
  8.192e+010      -0.107406       -0.725617       0.364821        -0.0469047      0.432998        0.074017        0.154961        -0.791567      
  8.3e+010        -0.103701       -0.73748        0.363789        -0.0540638      0.430409        0.0493917       0.136692        -0.788361      
  8.408e+010      -0.125158       -0.726014       0.360236        -0.0576007      0.43606         0.0590913       0.121798        -0.787647      
  8.516e+010      -0.155303       -0.703572       0.361601        -0.0663691      0.445827        0.0726832       0.117632        -0.802196      
  8.624e+010      -0.152288       -0.70744        0.353605        -0.0657495      0.437125        0.0538184       0.111581        -0.790744      
  8.732e+010      -0.165719       -0.702933       0.357349        -0.0654957      0.440871        0.0523161       0.101938        -0.80272       
  8.84e+010       -0.171499       -0.712002       0.357562        -0.0684401      0.440543        0.0394546       0.0880283       -0.79707       
  8.948e+010      -0.192962       -0.717105       0.36546         -0.0729299      0.451597        0.0260483       0.0659714       -0.792929      
  9.056e+010      -0.192874       -0.704638       0.365179        -0.0888571      0.444246        -0.00342335     0.0504484       -0.789717      
  9.164e+010      -0.207819       -0.696731       0.361179        -0.0983168      0.436982        -0.0209333      0.0428676       -0.797499      
  9.272e+010      -0.215287       -0.679078       0.352816        -0.10247        0.439481        -0.0118763      0.0394154       -0.786612      
  9.38e+010       -0.229578       -0.681404       0.349121        -0.108489       0.429656        -0.0309483      0.0304643       -0.800143      
  9.488e+010      -0.233764       -0.690088       0.34181         -0.110294       0.422288        -0.0347274      0.0388968       -0.795141      
  9.596e+010      -0.232654       -0.687149       0.338984        -0.112934       0.41318         -0.0493769      0.0131367       -0.797125      
  9.704e+010      -0.243268       -0.66843        0.338329        -0.118374       0.415461        -0.0544435      -0.0111393      -0.80703       
  9.812e+010      -0.249548       -0.68531        0.336539        -0.118598       0.410916        -0.0626853      -0.0193342      -0.806631      
  9.92e+010       -0.273811       -0.660793       0.333001        -0.114119       0.411972        -0.0599015      -0.0222108      -0.793868      
  1.0028e+011     -0.286481       -0.658778       0.338174        -0.115942       0.416524        -0.0670074      -0.0266929      -0.811013      
  1.0136e+011     -0.288962       -0.658565       0.333493        -0.11761        0.408545        -0.0769946      -0.0427628      -0.807843      
  1.0244e+011     -0.29292        -0.654367       0.333059        -0.123077       0.406886        -0.0840034      -0.0598307      -0.798616      
  1.0352e+011     -0.304302       -0.649564       0.325953        -0.122094       0.401242        -0.0867351      -0.0891999      -0.805589      
  1.046e+011      -0.311621       -0.642297       0.333006        -0.117256       0.409807        -0.0807673      -0.0793951      -0.805103      
  1.0568e+011     -0.324369       -0.63698        0.339139        -0.126648       0.411207        -0.0943151      -0.110251       -0.802667      
  1.0676e+011     -0.334132       -0.637465       0.338456        -0.136555       0.41662         -0.0998529      -0.116341       -0.811882      
  1.0784e+011     -0.34352        -0.63777        0.333995        -0.143399       0.409038        -0.108554       -0.13887        -0.783444      
  1.0892e+011     -0.348279       -0.644692       0.330893        -0.14987        0.39841         -0.121673       -0.151972       -0.778662      
  1.1e+011        -0.370568       -0.644456       0.325126        -0.153891       0.391676        -0.126505       -0.151869       -0.778782      
END_DB

