! VERSION = 6.00
BEGIN_HEADER
 ICCAP_INPUTS
  Vds        V  D GROUND SMU1 0 CON        4.5
  freq       F  LIN        1    2e+009     1.1e+011   101  1.08e+009 
  Vgs        V  G GROUND SMU2 0 CON        -1.4
 ICCAP_OUTPUTS
  S_deemb    S  P1 P2 GROUND NWA B
END_HEADER

BEGIN_DB
 ICCAP_VAR Vds        4.5            
 ICCAP_VAR Vgs        -1.4           

 #freq            R:S_deemb(1,1)  I:S_deemb(1,1)  R:S_deemb(1,2)  I:S_deemb(1,2)  R:S_deemb(2,1)  I:S_deemb(2,1)  R:S_deemb(2,2)  I:S_deemb(2,2) 
  2e+009          0.999004        -0.0436949      -6.81966e-005   0.0153214       -0.0161631      0.0165245       0.99395         -0.0363395     
  3.08e+009       0.997645        -0.0682349      0.000763848     0.0247993       -0.0150522      0.026609        0.993457        -0.0570413     
  4.16e+009       0.995507        -0.0922303      0.00172035      0.0334105       -0.0135461      0.0358653       0.992348        -0.077365      
  5.24e+009       0.992554        -0.116726       0.00363407      0.0432806       -0.01143        0.0463348       0.990109        -0.0981394     
  6.32e+009       0.988508        -0.140088       0.00601347      0.0517651       -0.00905333     0.0554152       0.987039        -0.11775       
  7.4e+009        0.984661        -0.163371       0.00802451      0.0600483       -0.00621626     0.0641909       0.984338        -0.137687      
  8.48e+009       0.979553        -0.186908       0.0110309       0.0684696       -0.00317177     0.0732656       0.980407        -0.15813       
  9.56e+009       0.973939        -0.209943       0.0141898       0.0767489       0.000353752     0.0820753       0.97623         -0.178245      
  1.064e+010      0.967955        -0.232949       0.0174872       0.0850727       0.00394692      0.0909002       0.971971        -0.197724      
  1.172e+010      0.961258        -0.255135       0.0211356       0.0929964       0.00793272      0.0993417       0.96721         -0.2165        
  1.28e+010       0.954209        -0.278316       0.0249752       0.101533        0.0121964       0.108359        0.962342        -0.235731      
  1.388e+010      0.946168        -0.301509       0.0301908       0.110216        0.0176821       0.117589        0.95618         -0.25584       
  1.496e+010      0.936429        -0.323658       0.0359596       0.117937        0.0238371       0.125754        0.948853        -0.275569      
  1.604e+010      0.927255        -0.344551       0.0412186       0.124793        0.0294469       0.133091        0.942115        -0.29442       
  1.712e+010      0.917757        -0.365538       0.0467576       0.132341        0.0357545       0.140842        0.935175        -0.313108      
  1.82e+010       0.907241        -0.386603       0.0530587       0.139539        0.0422215       0.148606        0.927676        -0.331209      
  1.928e+010      0.895191        -0.407639       0.060844        0.146719        0.0506414       0.156053        0.918521        -0.349689      
  2.036e+010      0.88265         -0.426898       0.0679478       0.152156        0.0580924       0.161923        0.909409        -0.366925      
  2.144e+010      0.870951        -0.447458       0.075326        0.158799        0.0660768       0.168844        0.900524        -0.385005      
  2.252e+010      0.858711        -0.46661        0.0829971       0.164784        0.0742946       0.174995        0.891879        -0.402309      
  2.36e+010       0.844498        -0.485551       0.0916582       0.169908        0.0834633       0.180478        0.881129        -0.41925       
  2.468e+010      0.830627        -0.501858       0.100499        0.17412         0.0930815       0.184658        0.870138        -0.435649      
  2.576e+010      0.817807        -0.518849       0.108714        0.178509        0.101559        0.189449        0.859355        -0.452539      
  2.684e+010      0.802369        -0.536486       0.117935        0.182076        0.111441        0.193074        0.848139        -0.469012      
  2.792e+010      0.788853        -0.552466       0.126861        0.185056        0.120693        0.196247        0.836635        -0.483993      
  2.9e+010        0.772754        -0.566884       0.136491        0.187328        0.131039        0.198567        0.824863        -0.497709      
  3.008e+010      0.759448        -0.581393       0.144686        0.189263        0.139766        0.200709        0.813825        -0.511225      
  3.116e+010      0.745349        -0.594941       0.154648        0.191794        0.150247        0.202784        0.800998        -0.525985      
  3.224e+010      0.729635        -0.610121       0.163572        0.192421        0.159719        0.203781        0.789304        -0.540961      
  3.332e+010      0.714586        -0.623757       0.172127        0.192684        0.168811        0.204011        0.777722        -0.554966      
  3.44e+010       0.695296        -0.638447       0.181478        0.193538        0.178771        0.204992        0.763077        -0.569248      
  3.548e+010      0.679887        -0.651355       0.191209        0.193392        0.188889        0.204939        0.750464        -0.580453      
  3.656e+010      0.666036        -0.662831       0.199335        0.193498        0.197637        0.20478         0.738221        -0.593438      
  3.764e+010      0.650196        -0.677742       0.208521        0.192514        0.207304        0.204182        0.724643        -0.607607      
  3.872e+010      0.632628        -0.689595       0.216377        0.192211        0.215884        0.203122        0.709718        -0.621048      
  3.98e+010       0.613257        -0.69689        0.224535        0.190116        0.224048        0.201253        0.695312        -0.629358      
  4.088e+010      0.595582        -0.707592       0.233454        0.187733        0.233606        0.198626        0.68046         -0.640311      
  4.196e+010      0.579248        -0.715871       0.242119        0.186118        0.242209        0.196727        0.666625        -0.652466      
  4.304e+010      0.562701        -0.726246       0.250579        0.18428         0.251339        0.1948          0.651569        -0.66222       
  4.412e+010      0.543216        -0.73638        0.260895        0.181937        0.262326        0.192341        0.635409        -0.672497      
  4.52e+010       0.526329        -0.740629       0.267861        0.17746         0.269501        0.187778        0.62216         -0.677366      
  4.628e+010      0.508015        -0.745309       0.275357        0.172866        0.277251        0.182805        0.606928        -0.683579      
  4.736e+010      0.493172        -0.752414       0.283424        0.167525        0.286112        0.177678        0.594686        -0.692499      
  4.844e+010      0.475835        -0.758067       0.28868         0.163362        0.291451        0.173022        0.579537        -0.699904      
  4.952e+010      0.453554        -0.76346        0.297323        0.157331        0.300741        0.166845        0.561892        -0.707828      
  5.06e+010       0.441836        -0.76355        0.302848        0.155002        0.306137        0.163556        0.554055        -0.713204      
  5.168e+010      0.424899        -0.759073       0.301267        0.147447        0.305044        0.155648        0.546289        -0.707173      
  5.276e+010      0.429046        -0.784662       0.31529         0.152661        0.319286        0.160954        0.532372        -0.743812      
  5.384e+010      0.405809        -0.788372       0.321027        0.144027        0.324951        0.152391        0.514213        -0.741351      
  5.492e+010      0.384309        -0.79152        0.326215        0.136796        0.33073         0.14485         0.494832        -0.746223      
  5.6e+010        0.36824         -0.800157       0.33293         0.134747        0.337383        0.14263         0.484176        -0.75567       
  5.708e+010      0.350006        -0.801309       0.339248        0.128891        0.344454        0.135996        0.465718        -0.758812      
  5.816e+010      0.330431        -0.800897       0.346568        0.120677        0.35144         0.127926        0.448976        -0.763373      
  5.924e+010      0.31727         -0.804259       0.347495        0.115553        0.352851        0.122164        0.438843        -0.765335      
  6.032e+010      0.299248        -0.801997       0.354329        0.107224        0.359961        0.112922        0.421532        -0.768685      
  6.14e+010       0.283575        -0.807138       0.360392        0.101801        0.367134        0.10856         0.410814        -0.777227      
  6.248e+010      0.273217        -0.80267        0.363003        0.0920756       0.368978        0.0968124       0.39962         -0.773961      
  6.356e+010      0.253698        -0.800518       0.367044        0.0840432       0.37286         0.0894094       0.379924        -0.784957      
  6.464e+010      0.250658        -0.802173       0.364182        0.0811337       0.369693        0.0863293       0.372699        -0.786871      
  6.572e+010      0.240926        -0.799443       0.36247         0.074879        0.368809        0.0794977       0.352977        -0.793338      
  6.68e+010       0.233797        -0.812627       0.36919         0.0754306       0.375586        0.0801327       0.346           -0.79964       
  6.788e+010      0.21179         -0.81841        0.375395        0.0698504       0.381172        0.0833044       0.32711         -0.803128      
  6.896e+010      0.173149        -0.830144       0.38627         0.0642787       0.391926        0.0779753       0.318891        -0.795202      
  7.004e+010      0.160964        -0.821925       0.390592        0.0545094       0.396035        0.0682539       0.289834        -0.807829      
  7.112e+010      0.144939        -0.822631       0.393328        0.0459689       0.399548        0.0572744       0.273054        -0.80422       
  7.22e+010       0.136304        -0.821698       0.398306        0.0377383       0.404856        0.0494732       0.262343        -0.81527       
  7.328e+010      0.116544        -0.815692       0.39969         0.0294424       0.406431        0.0400587       0.255558        -0.808897      
  7.436e+010      0.0961571       -0.810844       0.403831        0.0201418       0.410363        0.0352575       0.240046        -0.807511      
  7.544e+010      0.0831602       -0.80472        0.406791        0.00963208      0.414091        0.0215509       0.222186        -0.800977      
  7.652e+010      0.0713041       -0.808819       0.408243        -0.000789576    0.415455        0.0101124       0.201147        -0.800665      
  7.76e+010       0.0637581       -0.809665       0.406859        -0.00985353     0.41433         0.00215009      0.183514        -0.804254      
  7.868e+010      0.0414852       -0.801089       0.408475        -0.0185605      0.417023        -0.00399549     0.182502        -0.813342      
  7.976e+010      0.0226727       -0.794109       0.407396        -0.0293043      0.417052        -0.00921244     0.174561        -0.805115      
  8.084e+010      0.0191668       -0.787434       0.399943        -0.0397214      0.408569        -0.023619       0.163937        -0.799179      
  8.192e+010      0.0124759       -0.785839       0.396471        -0.0392893      0.405387        -0.0236604      0.160023        -0.802274      
  8.3e+010        0.0105643       -0.796675       0.395295        -0.0469793      0.402994        -0.0351861      0.141476        -0.798557      
  8.408e+010      -0.00523748     -0.794345       0.393208        -0.0529779      0.402792        -0.0379408      0.124776        -0.800475      
  8.516e+010      -0.0311961      -0.78175        0.3936          -0.0612343      0.405294        -0.0387123      0.120428        -0.811986      
  8.624e+010      -0.0313103      -0.784119       0.38742         -0.062336       0.397488        -0.0463362      0.114238        -0.803488      
  8.732e+010      -0.045771       -0.781606       0.389185        -0.0626349      0.398603        -0.0467967      0.102965        -0.812329      
  8.84e+010       -0.0535899      -0.790115       0.390962        -0.0648437      0.39971         -0.0525016      0.0906102       -0.80755       
  8.948e+010      -0.0766984      -0.801086       0.399977        -0.0719418      0.409389        -0.060495       0.066326        -0.80462       
  9.056e+010      -0.0834353      -0.78532        0.397904        -0.0886813      0.405966        -0.0802241      0.0506049       -0.799206      
  9.164e+010      -0.101827       -0.775569       0.394314        -0.0981237      0.401747        -0.0910523      0.0437365       -0.807288      
  9.272e+010      -0.106258       -0.769462       0.384757        -0.104174       0.393654        -0.0937965      0.0390397       -0.795137      
  9.38e+010       -0.1253         -0.764675       0.382845        -0.110797       0.391025        -0.102607       0.0303098       -0.810507      
  9.488e+010      -0.130898       -0.774168       0.375474        -0.112785       0.383391        -0.104685       0.038643        -0.804588      
  9.596e+010      -0.133197       -0.76535        0.372882        -0.115131       0.38004         -0.109145       0.0137265       -0.806597      
  9.704e+010      -0.143208       -0.751136       0.371989        -0.120351       0.378366        -0.115779       -0.0101758      -0.81578       
  9.812e+010      -0.150173       -0.7677         0.369748        -0.120932       0.374744        -0.118914       -0.0184592      -0.814989      
  9.92e+010       -0.17492        -0.751914       0.365895        -0.118556       0.370236        -0.119496       -0.023416       -0.802575      
  1.0028e+011     -0.189027       -0.749389       0.371513        -0.119984       0.37478         -0.125481       -0.0273851      -0.819191      
  1.0136e+011     -0.191539       -0.74739        0.367411        -0.122319       0.369626        -0.131212       -0.0438461      -0.815772      
  1.0244e+011     -0.195576       -0.744506       0.366184        -0.127848       0.36797         -0.137979       -0.0608203      -0.805023      
  1.0352e+011     -0.208483       -0.742876       0.358664        -0.126679       0.360479        -0.136856       -0.0897084      -0.812064      
  1.046e+011      -0.214515       -0.740593       0.363564        -0.1234         0.365767        -0.13199        -0.0824028      -0.809956      
  1.0568e+011     -0.232299       -0.733026       0.370856        -0.13117        0.373433        -0.136789       -0.110737       -0.806659      
  1.0676e+011     -0.240731       -0.739127       0.371359        -0.143974       0.375562        -0.146104       -0.118419       -0.817076      
  1.0784e+011     -0.250796       -0.738177       0.368331        -0.15153        0.373061        -0.152112       -0.139871       -0.788788      
  1.0892e+011     -0.25971        -0.741987       0.36323         -0.159756       0.368098        -0.15877        -0.153927       -0.782615      
  1.1e+011        -0.285996       -0.74211        0.357182        -0.163249       0.362584        -0.161007       -0.152983       -0.782786      
END_DB

